date Thu Apr 30 12:00:00.000 2026
base hex timestamps absolute
internal events logged
Begin Triggerblock Thu Apr 30 12:00:00.000 2026
0.000000 1 100 Rx d 2 00 01
0.010000 1 120 Rx d 8 e8 03 88 11 50 78 00 00
0.020000 1 200 Rx d 8 a4 b8 97 95 01 49 00 00
0.030000 1 220 Rx d 6 ab 00 8c 00 00 00
0.040000 1 240 Rx d 4 02 00 96 02
0.050000 1 260 Rx d 8 07 00 54 00 f8 ff 00 00
0.100000 1 100 Rx d 2 01 01
0.110000 1 120 Rx d 8 d2 04 03 15 64 82 00 00
0.120000 1 200 Rx d 8 a4 b7 97 c2 01 4a 00 00
0.130000 1 220 Rx d 6 c1 00 9e 00 00 00
0.140000 1 240 Rx d 4 08 00 c3 02
0.150000 1 260 Rx d 8 27 00 50 00 2d 00 00 00
0.200000 1 100 Rx d 2 02 01
0.210000 1 120 Rx d 8 dc 05 dd 18 78 8c 00 00
0.220000 1 200 Rx d 8 a4 ad 97 ff 01 4b 00 00
0.230000 1 220 Rx d 6 c9 00 a1 00 00 00
0.240000 1 240 Rx d 4 1c 00 c2 02
0.250000 1 260 Rx d 8 3d 00 60 00 11 00 00 00
0.300000 1 100 Rx d 2 03 01
0.310000 1 120 Rx d 8 cc 01 b3 0a 3a 7b 00 00
0.320000 1 200 Rx d 8 a4 ad 97 46 01 46 00 00
0.330000 1 220 Rx d 6 9f 00 83 00 00 00
0.340000 1 240 Rx d 4 28 00 ae 02
0.350000 1 260 Rx d 8 6c 00 54 00 29 00 00 00
0.400000 1 100 Rx d 2 04 01
0.410000 1 120 Rx d 8 cd 01 ea 0a 40 7b 00 00
0.420000 1 200 Rx d 8 a4 ad 97 39 01 46 00 00
0.430000 1 220 Rx d 6 bf 00 9d 00 00 00
0.440000 1 240 Rx d 4 32 00 ce 02
0.450000 1 260 Rx d 8 72 00 59 00 22 00 01 00
0.500000 1 100 Rx d 2 05 01
0.510000 1 120 Rx d 8 d9 01 18 0b 41 7b 00 00
0.520000 1 200 Rx d 8 a4 99 97 5e 01 47 00 00
0.530000 1 220 Rx d 6 a8 00 89 00 00 00
0.540000 1 240 Rx d 4 43 00 9f 02
0.550000 1 260 Rx d 8 8e 00 56 00 81 00 01 00
0.600000 1 100 Rx d 2 06 01
0.610000 1 120 Rx d 8 db 01 2e 0b 40 7b 00 00
0.620000 1 200 Rx d 8 a3 ae 97 5d 01 47 00 00
0.630000 1 220 Rx d 6 75 00 62 00 00 00
0.640000 1 240 Rx d 4 48 00 9f 02
0.650000 1 260 Rx d 8 9b 00 70 00 6c 00 01 00
0.700000 1 100 Rx d 2 07 01
0.710000 1 120 Rx d 8 db 01 43 0b 41 7b 00 00
0.720000 1 200 Rx d 8 a4 b0 97 54 01 47 00 00
0.730000 1 220 Rx d 6 71 00 5c 00 00 00
0.740000 1 240 Rx d 4 54 00 88 02
0.750000 1 260 Rx d 8 ca 00 6a 00 89 00 01 00
0.800000 1 100 Rx d 2 08 01
0.810000 1 120 Rx d 8 df 01 36 0b 43 7c 00 00
0.820000 1 200 Rx d 8 a4 a8 97 73 01 47 00 00
0.830000 1 220 Rx d 6 1b 00 16 00 00 00
0.840000 1 240 Rx d 4 5c 00 bb 02
0.850000 1 260 Rx d 8 cd 00 71 00 91 00 01 00
0.900000 1 100 Rx d 2 09 01
0.910000 1 120 Rx d 8 e2 01 62 0b 40 7c 00 00
0.920000 1 200 Rx d 8 a4 b9 97 4c 01 47 00 00
0.930000 1 220 Rx d 6 00 00 00 00 00 00
0.940000 1 240 Rx d 4 6e 00 9a 02
0.950000 1 260 Rx d 8 dd 00 73 00 56 00 01 00
1.000000 1 100 Rx d 2 0a 01
1.010000 1 120 Rx d 8 de 01 76 0b 46 7b 00 00
1.020000 1 200 Rx d 8 a4 a6 97 63 01 47 00 00
1.030000 1 220 Rx d 6 00 00 00 00 00 00
1.040000 1 240 Rx d 4 73 00 9b 02
1.050000 1 260 Rx d 8 e2 00 5e 00 97 00 02 00
1.100000 1 100 Rx d 2 0b 01
1.110000 1 120 Rx d 8 ea 01 8f 0b 47 7c 00 00
1.120000 1 200 Rx d 8 a4 a8 97 5b 01 47 00 00
1.130000 1 220 Rx d 6 00 00 00 00 00 00
1.140000 1 240 Rx d 4 7d 00 8d 02
1.150000 1 260 Rx d 8 c5 00 72 00 c1 00 01 00
1.200000 1 100 Rx d 2 0c 01
1.210000 1 120 Rx d 8 ee 01 af 0b 47 7c 00 00
1.220000 1 200 Rx d 8 a4 a1 97 87 01 47 00 00
1.230000 1 220 Rx d 6 00 00 00 00 00 00
1.240000 1 240 Rx d 4 84 00 3f 02
1.250000 1 260 Rx d 8 dd 00 7d 00 83 00 02 00
1.300000 1 100 Rx d 2 0d 01
1.310000 1 120 Rx d 8 ee 01 93 0b 4b 7c 00 00
1.320000 1 200 Rx d 8 a4 bf 97 84 01 47 00 00
1.330000 1 220 Rx d 6 00 00 00 00 00 00
1.340000 1 240 Rx d 4 80 00 5f 02
1.350000 1 260 Rx d 8 e7 00 6a 00 b5 00 01 00
1.400000 1 100 Rx d 2 0e 01
1.410000 1 120 Rx d 8 f9 01 95 0b 48 7c 00 00
1.420000 1 200 Rx d 8 a4 b5 97 85 01 47 00 00
1.430000 1 220 Rx d 6 00 00 00 00 00 00
1.440000 1 240 Rx d 4 8d 00 67 02
1.450000 1 260 Rx d 8 c7 00 7d 00 86 00 03 00
1.500000 1 100 Rx d 2 0f 01
1.510000 1 120 Rx d 8 f4 01 6a 0b 4a 7c 00 00
1.520000 1 200 Rx d 8 a4 bb 97 89 01 47 00 00
1.530000 1 220 Rx d 6 00 00 00 00 00 00
1.540000 1 240 Rx d 4 95 00 1e 02
1.550000 1 260 Rx d 8 d8 00 6d 00 dc 00 02 00
1.600000 1 100 Rx d 2 10 01
1.610000 1 120 Rx d 8 f9 01 97 0b 4a 7c 00 00
1.620000 1 200 Rx d 8 a4 ba 97 57 01 47 00 00
1.630000 1 220 Rx d 6 00 00 00 00 00 00
1.640000 1 240 Rx d 4 90 00 37 02
1.650000 1 260 Rx d 8 ba 00 85 00 8d 00 02 00
1.700000 1 100 Rx d 2 11 01
1.710000 1 120 Rx d 8 fa 01 90 0b 51 7c 00 00
1.720000 1 200 Rx d 8 a4 9a 97 8f 01 47 00 00
1.730000 1 220 Rx d 6 00 00 00 00 00 00
1.740000 1 240 Rx d 4 99 00 f3 01
1.750000 1 260 Rx d 8 d4 00 71 00 a8 00 03 00
1.800000 1 100 Rx d 2 12 01
1.810000 1 120 Rx d 8 09 02 a8 0b 4f 7c 00 00
1.820000 1 200 Rx d 8 a3 af 97 9e 01 47 00 00
1.830000 1 220 Rx d 6 00 00 00 00 00 00
1.840000 1 240 Rx d 4 94 00 1c 02
1.850000 1 260 Rx d 8 b3 00 78 00 b8 00 02 00
1.900000 1 100 Rx d 2 13 01
1.910000 1 120 Rx d 8 08 02 92 0b 51 7c 00 00
1.920000 1 200 Rx d 8 a4 bd 97 7a 01 47 00 00
1.930000 1 220 Rx d 6 00 00 00 00 00 00
1.940000 1 240 Rx d 4 9f 00 cd 01
1.950000 1 260 Rx d 8 b8 00 81 00 b1 00 03 00
2.000000 1 100 Rx d 2 14 01
2.010000 1 120 Rx d 8 0e 02 4b 0b 52 7c 00 00
2.020000 1 200 Rx d 8 a4 a2 97 9c 01 47 00 00
2.030000 1 220 Rx d 6 00 00 00 00 00 00
2.040000 1 240 Rx d 4 97 00 c5 01
2.050000 1 260 Rx d 8 c2 00 7c 00 ab 00 03 00
2.100000 1 100 Rx d 2 15 01
2.110000 1 120 Rx d 8 11 02 46 0b 4d 7c 00 00
2.120000 1 200 Rx d 8 a3 b5 97 67 01 47 00 00
2.130000 1 220 Rx d 6 00 00 00 00 00 00
2.140000 1 240 Rx d 4 99 00 c0 01
2.150000 1 260 Rx d 8 bd 00 7f 00 bf 00 03 00
2.200000 1 100 Rx d 2 16 01
2.210000 1 120 Rx d 8 08 02 47 0b 52 7c 00 00
2.220000 1 200 Rx d 8 a4 9e 97 a5 01 47 00 00
2.230000 1 220 Rx d 6 00 00 00 00 00 00
2.240000 1 240 Rx d 4 9b 00 99 01
2.250000 1 260 Rx d 8 c5 00 85 00 94 00 03 00
2.300000 1 100 Rx d 2 17 01
2.310000 1 120 Rx d 8 15 02 33 0b 55 7d 00 00
2.320000 1 200 Rx d 8 a3 bb 97 82 01 47 00 00
2.330000 1 220 Rx d 6 27 00 20 00 00 00
2.340000 1 240 Rx d 4 98 00 84 01
2.350000 1 260 Rx d 8 d4 00 79 00 c5 00 04 00
2.400000 1 100 Rx d 2 18 01
2.410000 1 120 Rx d 8 1d 02 48 0b 50 7c 00 00
2.420000 1 200 Rx d 8 a4 9f 97 7d 01 47 00 00
2.430000 1 220 Rx d 6 65 00 52 00 00 00
2.440000 1 240 Rx d 4 98 00 79 01
2.450000 1 260 Rx d 8 ce 00 8a 00 e4 00 03 00
2.500000 1 100 Rx d 2 19 01
2.510000 1 120 Rx d 8 16 02 0c 0b 55 7d 00 00
2.520000 1 200 Rx d 8 a3 a4 97 99 01 47 00 00
2.530000 1 220 Rx d 6 7c 00 66 00 00 00
2.540000 1 240 Rx d 4 99 00 3b 01
2.550000 1 260 Rx d 8 f2 00 95 00 9e 00 03 00
2.600000 1 100 Rx d 2 1a 01
2.610000 1 120 Rx d 8 22 02 4b 0b 51 7c 00 00
2.620000 1 200 Rx d 8 a3 ad 97 81 01 47 00 00
2.630000 1 220 Rx d 6 9f 00 82 00 00 00
2.640000 1 240 Rx d 4 92 00 4b 01
2.650000 1 260 Rx d 8 10 01 80 00 97 00 04 00
2.700000 1 100 Rx d 2 1b 01
2.710000 1 120 Rx d 8 1b 02 1e 0b 57 7c 00 00
2.720000 1 200 Rx d 8 a4 a6 97 97 01 47 00 00
2.730000 1 220 Rx d 6 c1 00 9c 00 00 00
2.740000 1 240 Rx d 4 96 00 4a 01
2.750000 1 260 Rx d 8 07 01 82 00 d0 00 04 00
2.800000 1 100 Rx d 2 1c 01
2.810000 1 120 Rx d 8 2b 02 3c 0b 52 7d 00 00
2.820000 1 200 Rx d 8 a3 a7 97 90 01 47 00 00
2.830000 1 220 Rx d 6 a8 00 8b 00 00 00
2.840000 1 240 Rx d 4 98 00 f6 00
2.850000 1 260 Rx d 8 1c 01 92 00 da 00 04 00
2.900000 1 100 Rx d 2 1d 01
2.910000 1 120 Rx d 8 23 02 42 0b 54 7c 00 00
2.920000 1 200 Rx d 8 a3 ad 97 7a 01 47 00 00
2.930000 1 220 Rx d 6 d1 00 b0 00 00 00
2.940000 1 240 Rx d 4 8e 00 dc 00
2.950000 1 260 Rx d 8 47 01 95 00 b9 00 03 00
3.000000 1 100 Rx d 2 1e 01
3.010000 1 120 Rx d 8 29 02 5d 0b 56 7c 00 00
3.020000 1 200 Rx d 8 a4 9c 97 a0 01 47 00 00
3.030000 1 220 Rx d 6 df 00 b5 00 00 00
3.040000 1 240 Rx d 4 8d 00 ea 00
3.050000 1 260 Rx d 8 5f 01 8f 00 7f 00 04 00
3.100000 1 100 Rx d 2 1f 01
3.110000 1 120 Rx d 8 30 02 7e 0b 55 7d 00 00
3.120000 1 200 Rx d 8 a3 af 97 b0 01 47 00 00
3.130000 1 220 Rx d 6 90 00 75 00 00 00
3.140000 1 240 Rx d 4 92 00 d3 00
3.150000 1 260 Rx d 8 6b 01 7e 00 af 00 05 00
3.200000 1 100 Rx d 2 20 01
3.210000 1 120 Rx d 8 30 02 a2 0b 55 7c 00 00
3.220000 1 200 Rx d 8 a4 bd 97 87 01 47 00 00
3.230000 1 220 Rx d 6 71 00 5e 00 00 00
3.240000 1 240 Rx d 4 91 00 a6 00
3.250000 1 260 Rx d 8 68 01 8b 00 cd 00 05 00
3.300000 1 100 Rx d 2 21 01
3.310000 1 120 Rx d 8 34 02 ab 0b 57 7d 00 00
3.320000 1 200 Rx d 8 a4 a2 97 8d 01 47 00 00
3.330000 1 220 Rx d 6 73 00 60 00 00 00
3.340000 1 240 Rx d 4 8e 00 5c 00
3.350000 1 260 Rx d 8 8a 01 95 00 c2 00 04 00
3.400000 1 100 Rx d 2 22 01
3.410000 1 120 Rx d 8 3a 02 ee 0b 54 7d 00 00
3.420000 1 200 Rx d 8 a3 a0 97 a2 01 47 00 00
3.430000 1 220 Rx d 6 4c 00 3f 00 00 00
3.440000 1 240 Rx d 4 87 00 61 00
3.450000 1 260 Rx d 8 a5 01 93 00 79 00 05 00
3.500000 1 100 Rx d 2 23 01
3.510000 1 120 Rx d 8 37 02 32 0c 58 7d 00 00
3.520000 1 200 Rx d 8 a3 b5 97 b3 01 47 00 00
3.530000 1 220 Rx d 6 0b 00 09 00 00 00
3.540000 1 240 Rx d 4 8c 00 5c 00
3.550000 1 260 Rx d 8 ad 01 7f 00 a1 00 05 00
3.600000 1 100 Rx d 2 24 01
3.610000 1 120 Rx d 8 43 02 4d 0c 5b 7d 00 00
3.620000 1 200 Rx d 8 a4 b9 97 ae 01 47 00 00
3.630000 1 220 Rx d 6 00 00 00 00 00 00
3.640000 1 240 Rx d 4 8f 00 39 00
3.650000 1 260 Rx d 8 9a 01 89 00 dd 00 05 00
3.700000 1 100 Rx d 2 25 01
3.710000 1 120 Rx d 8 4b 02 66 0c 55 7d 00 00
3.720000 1 200 Rx d 8 a4 b1 97 7c 01 47 00 00
3.730000 1 220 Rx d 6 00 00 00 00 00 00
3.740000 1 240 Rx d 4 8f 00 e8 ff
3.750000 1 260 Rx d 8 ab 01 99 00 d4 00 05 00
3.800000 1 100 Rx d 2 26 01
3.810000 1 120 Rx d 8 43 02 96 0c 55 7d 00 00
3.820000 1 200 Rx d 8 a3 9a 97 95 01 47 00 00
3.830000 1 220 Rx d 6 00 00 00 00 00 00
3.840000 1 240 Rx d 4 88 00 e6 ff
3.850000 1 260 Rx d 8 c0 01 97 00 a2 00 05 00
3.900000 1 100 Rx d 2 27 01
3.910000 1 120 Rx d 8 47 02 de 0c 59 7d 00 00
3.920000 1 200 Rx d 8 a3 a9 97 b4 01 47 00 00
3.930000 1 220 Rx d 6 00 00 00 00 00 00
3.940000 1 240 Rx d 4 8d 00 f5 ff
3.950000 1 260 Rx d 8 b8 01 89 00 9b 00 05 00
4.000000 1 100 Rx d 2 28 01
4.010000 1 120 Rx d 8 53 02 11 0d 5a 7d 00 00
4.020000 1 200 Rx d 8 a3 b6 97 b2 01 47 00 00
4.030000 1 220 Rx d 6 00 00 00 00 00 00
4.040000 1 240 Rx d 4 96 00 d1 ff
4.050000 1 260 Rx d 8 9e 01 85 00 b3 00 05 00
4.100000 1 100 Rx d 2 29 01
4.110000 1 120 Rx d 8 58 02 01 0d 58 7d 00 00
4.120000 1 200 Rx d 8 a3 b4 97 85 01 47 00 00
4.130000 1 220 Rx d 6 00 00 00 00 00 00
4.140000 1 240 Rx d 4 96 00 92 ff
4.150000 1 260 Rx d 8 8d 01 88 00 8a 00 06 00
4.200000 1 100 Rx d 2 2a 01
4.210000 1 120 Rx d 8 58 02 1d 0d 53 7d 00 00
4.220000 1 200 Rx d 8 a3 9a 97 8c 01 47 00 00
4.230000 1 220 Rx d 6 00 00 00 00 00 00
4.240000 1 240 Rx d 4 93 00 6b ff
4.250000 1 260 Rx d 8 83 01 7b 00 da 00 05 00
4.300000 1 100 Rx d 2 2b 01
4.310000 1 120 Rx d 8 52 02 49 0d 57 7d 00 00
4.320000 1 200 Rx d 8 a2 a6 97 b7 01 47 00 00
4.330000 1 220 Rx d 6 00 00 00 00 00 00
4.340000 1 240 Rx d 4 94 00 59 ff
4.350000 1 260 Rx d 8 60 01 93 00 9d 00 05 00
4.400000 1 100 Rx d 2 2c 01
4.410000 1 120 Rx d 8 5c 02 7e 0d 59 7d 00 00
4.420000 1 200 Rx d 8 a3 bd 97 b9 01 47 00 00
4.430000 1 220 Rx d 6 00 00 00 00 00 00
4.440000 1 240 Rx d 4 98 00 1c ff
4.450000 1 260 Rx d 8 6e 01 80 00 a6 00 06 00
4.500000 1 100 Rx d 2 2d 01
4.510000 1 120 Rx d 8 65 02 69 0d 58 7d 00 00
4.520000 1 200 Rx d 8 a3 bb 97 9d 01 47 00 00
4.530000 1 220 Rx d 6 00 00 00 00 00 00
4.540000 1 240 Rx d 4 95 00 42 ff
4.550000 1 260 Rx d 8 40 01 80 00 bf 00 06 00
4.600000 1 100 Rx d 2 2e 01
4.610000 1 120 Rx d 8 67 02 6f 0d 53 7d 00 00
4.620000 1 200 Rx d 8 a3 aa 97 85 01 47 00 00
4.630000 1 220 Rx d 6 00 00 00 00 00 00
4.640000 1 240 Rx d 4 a2 00 f5 fe
4.650000 1 260 Rx d 8 2c 01 87 00 cb 00 06 00
4.700000 1 100 Rx d 2 2f 01
4.710000 1 120 Rx d 8 60 02 91 0d 55 7d 00 00
4.720000 1 200 Rx d 8 a3 a3 97 95 01 47 00 00
4.730000 1 220 Rx d 6 00 00 00 00 00 00
4.740000 1 240 Rx d 4 9c 00 de fe
4.750000 1 260 Rx d 8 22 01 85 00 bd 00 06 00
4.800000 1 100 Rx d 2 30 01
4.810000 1 120 Rx d 8 69 02 b9 0d 59 7d 00 00
4.820000 1 200 Rx d 8 a2 a8 97 88 01 47 00 00
4.830000 1 220 Rx d 6 1c 00 17 00 00 00
4.840000 1 240 Rx d 4 9f 00 d9 fe
4.850000 1 260 Rx d 8 0d 01 82 00 a9 00 07 00
4.900000 1 100 Rx d 2 31 01
4.910000 1 120 Rx d 8 76 02 ad 0d 58 7d 00 00
4.920000 1 200 Rx d 8 a3 98 97 b7 01 47 00 00
4.930000 1 220 Rx d 6 1b 00 16 00 00 00
4.940000 1 240 Rx d 4 a4 00 bd fe
4.950000 1 260 Rx d 8 f7 00 79 00 f1 00 07 00
5.000000 1 100 Rx d 2 32 01
5.010000 1 120 Rx d 8 78 02 82 0d 54 7d 00 00
5.020000 1 200 Rx d 8 a2 b8 97 87 01 47 00 00
5.030000 1 220 Rx d 6 4c 00 3e 00 00 00
5.040000 1 240 Rx d 4 a5 00 9d fe
5.050000 1 260 Rx d 8 de 00 8c 00 f4 00 06 00
5.100000 1 100 Rx d 2 33 01
5.110000 1 120 Rx d 8 75 02 66 0d 53 7d 00 00
5.120000 1 200 Rx d 8 a3 a2 97 85 01 47 00 00
5.130000 1 220 Rx d 6 8a 00 72 00 00 00
5.140000 1 240 Rx d 4 a5 00 72 fe
5.150000 1 260 Rx d 8 ea 00 8b 00 a2 00 07 00
5.200000 1 100 Rx d 2 34 01
5.210000 1 120 Rx d 8 76 02 35 0d 54 7d 00 00
5.220000 1 200 Rx d 8 a2 a2 97 98 01 47 00 00
5.230000 1 220 Rx d 6 a9 00 8b 00 00 00
5.240000 1 240 Rx d 4 a3 00 8e fe
5.250000 1 260 Rx d 8 e0 00 71 00 d8 00 06 00
5.300000 1 100 Rx d 2 35 01
5.310000 1 120 Rx d 8 7c 02 59 0d 50 7d 00 00
5.320000 1 200 Rx d 8 a2 ad 97 8c 01 47 00 00
5.330000 1 220 Rx d 6 ba 00 97 00 00 00
5.340000 1 240 Rx d 4 ab 00 78 fe
5.350000 1 260 Rx d 8 b7 00 80 00 a3 00 07 00
5.400000 1 100 Rx d 2 36 01
5.410000 1 120 Rx d 8 79 02 26 0d 56 7d 00 00
5.420000 1 200 Rx d 8 a2 ac 97 9a 01 47 00 00
5.430000 1 220 Rx d 6 b4 00 97 00 00 00
5.440000 1 240 Rx d 4 aa 00 1f fe
5.450000 1 260 Rx d 8 c9 00 6c 00 fd 00 07 00
5.500000 1 100 Rx d 2 37 01
5.510000 1 120 Rx d 8 89 02 21 0d 51 7d 00 00
5.520000 1 200 Rx d 8 a2 a9 97 7c 01 47 00 00
5.530000 1 220 Rx d 6 ea 00 c5 00 00 00
5.540000 1 240 Rx d 4 9f 00 36 fe
5.550000 1 260 Rx d 8 ae 00 85 00 c2 00 07 00
5.600000 1 100 Rx d 2 38 01
5.610000 1 120 Rx d 8 83 02 04 0d 51 7d 00 00
5.620000 1 200 Rx d 8 a2 9f 97 a3 01 47 00 00
5.630000 1 220 Rx d 6 e2 00 b6 00 00 00
5.640000 1 240 Rx d 4 a4 00 f0 fd
5.650000 1 260 Rx d 8 d2 00 76 00 ba 00 07 00
5.700000 1 100 Rx d 2 39 01
5.710000 1 120 Rx d 8 87 02 fd 0c 53 7d 00 00
5.720000 1 200 Rx d 8 a2 b9 97 a9 01 47 00 00
5.730000 1 220 Rx d 6 8c 00 74 00 00 00
5.740000 1 240 Rx d 4 99 00 24 fe
5.750000 1 260 Rx d 8 c3 00 71 00 c2 00 07 00
5.800000 1 100 Rx d 2 3a 01
5.810000 1 120 Rx d 8 8f 02 ef 0c 52 7d 00 00
5.820000 1 200 Rx d 8 a2 bb 97 76 01 47 00 00
5.830000 1 220 Rx d 6 9a 00 7c 00 00 00
5.840000 1 240 Rx d 4 a0 00 ec fd
5.850000 1 260 Rx d 8 c1 00 75 00 bb 00 07 00
5.900000 1 100 Rx d 2 3b 01
5.910000 1 120 Rx d 8 92 02 c6 0c 51 7e 00 00
5.920000 1 200 Rx d 8 a2 9a 97 95 01 47 00 00
5.930000 1 220 Rx d 6 43 00 38 00 00 00
5.940000 1 240 Rx d 4 96 00 cf fd
5.950000 1 260 Rx d 8 ce 00 6f 00 b0 00 06 00
6.000000 1 100 Rx d 2 3c 01
6.010000 1 120 Rx d 8 95 02 dd 0c 4f 7e 00 00
6.020000 1 200 Rx d 8 a1 af 97 69 01 47 00 00
6.030000 1 220 Rx d 6 5f 00 4e 00 00 00
6.040000 1 240 Rx d 4 8f 00 cd fd
6.050000 1 260 Rx d 8 cd 00 6e 00 7a 00 07 00
6.100000 1 100 Rx d 2 3d 01
6.110000 1 120 Rx d 8 94 02 e7 0c 54 7d 00 00
6.120000 1 200 Rx d 8 a2 97 97 ae 01 48 00 00
6.130000 1 220 Rx d 6 0b 00 09 00 00 00
6.140000 1 240 Rx d 4 8b 00 b0 fd
6.150000 1 260 Rx d 8 d2 00 5f 00 be 00 07 00
6.200000 1 100 Rx d 2 3e 01
6.210000 1 120 Rx d 8 a2 02 c2 0c 53 7e 00 00
6.220000 1 200 Rx d 8 a1 ba 97 92 01 48 00 00
6.230000 1 220 Rx d 6 00 00 00 00 00 00
6.240000 1 240 Rx d 4 82 00 a2 fd
6.250000 1 260 Rx d 8 c3 00 73 00 8b 00 07 00
6.300000 1 100 Rx d 2 3f 01
6.310000 1 120 Rx d 8 a6 02 c7 0c 4c 7d 00 00
6.320000 1 200 Rx d 8 a2 a9 97 75 01 47 00 00
6.330000 1 220 Rx d 6 00 00 00 00 00 00
6.340000 1 240 Rx d 4 7a 00 6f fd
6.350000 1 260 Rx d 8 e1 00 66 00 78 00 08 00
6.400000 1 100 Rx d 2 40 01
6.410000 1 120 Rx d 8 9d 02 8a 0c 50 7e 00 00
6.420000 1 200 Rx d 8 a1 a3 97 8d 01 47 00 00
6.430000 1 220 Rx d 6 00 00 00 00 00 00
6.440000 1 240 Rx d 4 6c 00 9c fd
6.450000 1 260 Rx d 8 d0 00 61 00 a1 00 08 00
6.500000 1 100 Rx d 2 41 01
6.510000 1 120 Rx d 8 a9 02 da 0c 4b 7d 00 00
6.520000 1 200 Rx d 8 a1 aa 97 74 01 47 00 00
6.530000 1 220 Rx d 6 00 00 00 00 00 00
6.540000 1 240 Rx d 4 6b 00 70 fd
6.550000 1 260 Rx d 8 c8 00 71 00 b0 00 07 00
6.600000 1 100 Rx d 2 42 01
6.610000 1 120 Rx d 8 a3 02 cf 0c 52 7d 00 00
6.620000 1 200 Rx d 8 a1 a5 97 8a 01 47 00 00
6.630000 1 220 Rx d 6 00 00 00 00 00 00
6.640000 1 240 Rx d 4 5c 00 5d fd
6.650000 1 260 Rx d 8 d7 00 75 00 57 00 07 00
6.700000 1 100 Rx d 2 43 01
6.710000 1 120 Rx d 8 b5 02 f0 0c 4e 7e 00 00
6.720000 1 200 Rx d 8 a1 a5 97 63 01 47 00 00
6.730000 1 220 Rx d 6 00 00 00 00 00 00
6.740000 1 240 Rx d 4 50 00 82 fd
6.750000 1 260 Rx d 8 d2 00 5e 00 37 00 08 00
6.800000 1 100 Rx d 2 44 01
6.810000 1 120 Rx d 8 b1 02 fa 0c 4d 7d 00 00
6.820000 1 200 Rx d 8 a1 92 97 8a 01 48 00 00
6.830000 1 220 Rx d 6 00 00 00 00 00 00
6.840000 1 240 Rx d 4 4b 00 86 fd
6.850000 1 260 Rx d 8 a7 00 57 00 5e 00 07 00
6.900000 1 100 Rx d 2 45 01
6.910000 1 120 Rx d 8 b2 02 0e 0d 4e 7d 00 00
6.920000 1 200 Rx d 8 a0 ae 97 76 01 48 00 00
6.930000 1 220 Rx d 6 00 00 00 00 00 00
6.940000 1 240 Rx d 4 42 00 45 fd
6.950000 1 260 Rx d 8 8d 00 64 00 43 00 08 00
7.000000 1 100 Rx d 2 46 01
7.010000 1 120 Rx d 8 b9 02 32 0d 4d 7d 00 00
7.020000 1 200 Rx d 8 a1 a0 97 6c 01 48 00 00
7.030000 1 220 Rx d 6 00 00 00 00 00 00
7.040000 1 240 Rx d 4 2d 00 31 fd
7.050000 1 260 Rx d 8 89 00 5e 00 48 00 08 00
7.100000 1 100 Rx d 2 47 01
7.110000 1 120 Rx d 8 ba 02 2a 0d 4d 7e 00 00
7.120000 1 200 Rx d 8 a1 9a 97 8f 01 48 00 00
7.130000 1 220 Rx d 6 00 00 00 00 00 00
7.140000 1 240 Rx d 4 1e 00 4f fd
7.150000 1 260 Rx d 8 69 00 66 00 3f 00 08 00
7.200000 1 100 Rx d 2 48 01
7.210000 1 120 Rx d 8 be 02 76 0d 49 7d 00 00
7.220000 1 200 Rx d 8 a0 b1 97 8d 01 48 00 00
7.230000 1 220 Rx d 6 00 00 00 00 00 00
7.240000 1 240 Rx d 4 17 00 3f fd
7.250000 1 260 Rx d 8 5a 00 68 00 28 00 08 00
7.300000 1 100 Rx d 2 49 01
7.310000 1 120 Rx d 8 ba 02 89 0d 4e 7d 00 00
7.320000 1 200 Rx d 8 a1 b9 97 73 01 48 00 00
7.330000 1 220 Rx d 6 00 00 00 00 00 00
7.340000 1 240 Rx d 4 08 00 54 fd
7.350000 1 260 Rx d 8 40 00 63 00 15 00 07 00
7.400000 1 100 Rx d 2 4a 01
7.410000 1 120 Rx d 8 c9 02 bd 0d 4b 7e 00 00
7.420000 1 200 Rx d 8 a1 9d 97 5f 01 48 00 00
7.430000 1 220 Rx d 6 00 00 00 00 00 00
7.440000 1 240 Rx d 4 ff ff 5a fd
7.450000 1 260 Rx d 8 1b 00 62 00 da ff 08 00
7.500000 1 100 Rx d 2 4b 01
7.510000 1 120 Rx d 8 c6 02 fc 0d 4a 7e 00 00
7.520000 1 200 Rx d 8 a0 94 97 77 01 48 00 00
7.530000 1 220 Rx d 6 19 00 15 00 00 00
7.540000 1 240 Rx d 4 f4 ff 4e fd
7.550000 1 260 Rx d 8 fb ff 52 00 ed ff 08 00
7.600000 1 100 Rx d 2 4c 01
7.610000 1 120 Rx d 8 c8 02 48 0e 4f 7d 00 00
7.620000 1 200 Rx d 8 a0 a5 97 7c 01 48 00 00
7.630000 1 220 Rx d 6 5f 00 4f 00 00 00
7.640000 1 240 Rx d 4 e6 ff 4e fd
7.650000 1 260 Rx d 8 c9 ff 5c 00 e8 ff 07 00
7.700000 1 100 Rx d 2 4d 01
7.710000 1 120 Rx d 8 d5 02 5c 0e 50 7d 00 00
7.720000 1 200 Rx d 8 a0 9f 97 92 01 48 00 00
7.730000 1 220 Rx d 6 8f 00 76 00 00 00
7.740000 1 240 Rx d 4 d9 ff 2a fd
7.750000 1 260 Rx d 8 b7 ff 5f 00 b1 ff 08 00
7.800000 1 100 Rx d 2 4e 01
7.810000 1 120 Rx d 8 db 02 58 0e 4b 7e 00 00
7.820000 1 200 Rx d 8 a0 ab 97 86 01 48 00 00
7.830000 1 220 Rx d 6 a6 00 89 00 00 00
7.840000 1 240 Rx d 4 c8 ff 47 fd
7.850000 1 260 Rx d 8 a0 ff 52 00 a6 ff 08 00
7.900000 1 100 Rx d 2 4f 01
7.910000 1 120 Rx d 8 d3 02 6f 0e 49 7e 00 00
7.920000 1 200 Rx d 8 a0 af 97 79 01 48 00 00
7.930000 1 220 Rx d 6 be 00 99 00 00 00
7.940000 1 240 Rx d 4 c1 ff 56 fd
7.950000 1 260 Rx d 8 75 ff 55 00 e0 ff 08 00
8.000000 1 100 Rx d 2 50 02
8.010000 1 120 Rx d 8 0f 03 4b 0f 4d 7e 00 00
8.020000 1 200 Rx d 8 a0 a9 97 84 01 48 00 00
8.030000 1 220 Rx d 6 a7 00 88 00 00 00
8.040000 1 240 Rx d 4 b8 ff 3b fd
8.050000 1 260 Rx d 8 62 ff 69 00 b5 ff 08 00
8.100000 1 100 Rx d 2 51 02
8.110000 1 120 Rx d 8 16 03 7f 0f 4c 7e 00 00
8.120000 1 200 Rx d 8 a0 a8 97 62 01 48 00 00
8.130000 1 220 Rx d 6 c4 00 a2 00 00 00
8.140000 1 240 Rx d 4 a9 ff 4a fd
8.150000 1 260 Rx d 8 68 ff 5f 00 a8 ff 08 00
8.200000 1 100 Rx d 2 52 02
8.210000 1 120 Rx d 8 14 03 93 0f 4e 7e 00 00
8.220000 1 200 Rx d 8 a0 95 97 7d 01 48 00 00
8.230000 1 220 Rx d 6 c7 00 a0 00 00 00
8.240000 1 240 Rx d 4 a1 ff 87 fd
8.250000 1 260 Rx d 8 4b ff 60 00 b0 ff 08 00
8.300000 1 100 Rx d 2 53 02
8.310000 1 120 Rx d 8 19 03 9d 0f 4e 7e 00 00
8.320000 1 200 Rx d 8 9f a1 97 86 01 48 00 00
8.330000 1 220 Rx d 6 93 00 77 00 00 00
8.340000 1 240 Rx d 4 a0 ff 78 fd
8.350000 1 260 Rx d 8 40 ff 65 00 7f ff 08 00
8.400000 1 100 Rx d 2 54 02
8.410000 1 120 Rx d 8 1a 03 97 0f 4d 7e 00 00
8.420000 1 200 Rx d 8 a0 a6 97 6a 01 48 00 00
8.430000 1 220 Rx d 6 7e 00 6a 00 00 00
8.440000 1 240 Rx d 4 95 ff 86 fd
8.450000 1 260 Rx d 8 3e ff 56 00 a1 ff 08 00
8.500000 1 100 Rx d 2 55 02
8.510000 1 120 Rx d 8 18 03 60 0f 4d 7e 00 00
8.520000 1 200 Rx d 8 a0 96 97 6f 01 48 00 00
8.530000 1 220 Rx d 6 8e 00 75 00 00 00
8.540000 1 240 Rx d 4 8f ff a0 fd
8.550000 1 260 Rx d 8 25 ff 64 00 74 ff 08 00
8.600000 1 100 Rx d 2 56 02
8.610000 1 120 Rx d 8 18 03 57 0f 49 7e 00 00
8.620000 1 200 Rx d 8 9f 99 97 8b 01 48 00 00
8.630000 1 220 Rx d 6 4a 00 3d 00 00 00
8.640000 1 240 Rx d 4 8b ff 86 fd
8.650000 1 260 Rx d 8 36 ff 59 00 5c ff 08 00
8.700000 1 100 Rx d 2 57 02
8.710000 1 120 Rx d 8 10 03 47 0f 4c 7e 00 00
8.720000 1 200 Rx d 8 9f b4 97 80 01 48 00 00
8.730000 1 220 Rx d 6 1e 00 19 00 00 00
8.740000 1 240 Rx d 4 7f ff ba fd
8.750000 1 260 Rx d 8 27 ff 53 00 6f ff 07 00
8.800000 1 100 Rx d 2 58 02
8.810000 1 120 Rx d 8 15 03 29 0f 4d 7e 00 00
8.820000 1 200 Rx d 8 a0 a9 97 86 01 48 00 00
8.830000 1 220 Rx d 6 00 00 00 00 00 00
8.840000 1 240 Rx d 4 81 ff ab fd
8.850000 1 260 Rx d 8 22 ff 5d 00 39 ff 08 00
8.900000 1 100 Rx d 2 59 02
8.910000 1 120 Rx d 8 17 03 0c 0f 4a 7f 00 00
8.920000 1 200 Rx d 8 a0 aa 97 88 01 48 00 00
8.930000 1 220 Rx d 6 00 00 00 00 00 00
8.940000 1 240 Rx d 4 78 ff ac fd
8.950000 1 260 Rx d 8 33 ff 4d 00 4f ff 08 00
9.000000 1 100 Rx d 2 5a 02
9.010000 1 120 Rx d 8 11 03 17 0f 4b 7e 00 00
9.020000 1 200 Rx d 8 a0 b1 97 6d 01 48 00 00
9.030000 1 220 Rx d 6 00 00 00 00 00 00
9.040000 1 240 Rx d 4 73 ff d7 fd
9.050000 1 260 Rx d 8 21 ff 57 00 7d ff 08 00
9.100000 1 100 Rx d 2 5b 02
9.110000 1 120 Rx d 8 12 03 06 0f 50 7e 00 00
9.120000 1 200 Rx d 8 a0 9e 97 9b 01 48 00 00
9.130000 1 220 Rx d 6 00 00 00 00 00 00
9.140000 1 240 Rx d 4 75 ff bd fd
9.150000 1 260 Rx d 8 33 ff 67 00 3a ff 08 00
9.200000 1 100 Rx d 2 5c 02
9.210000 1 120 Rx d 8 1d 03 00 0f 4e 7f 00 00
9.220000 1 200 Rx d 8 9f b0 97 7d 01 48 00 00
9.230000 1 220 Rx d 6 00 00 00 00 00 00
9.240000 1 240 Rx d 4 6d ff e9 fd
9.250000 1 260 Rx d 8 4c ff 53 00 78 ff 08 00
9.300000 1 100 Rx d 2 5d 02
9.310000 1 120 Rx d 8 18 03 e4 0e 4f 7e 00 00
9.320000 1 200 Rx d 8 a0 a2 97 74 01 48 00 00
9.330000 1 220 Rx d 6 00 00 00 00 00 00
9.340000 1 240 Rx d 4 6f ff 27 fe
9.350000 1 260 Rx d 8 34 ff 6a 00 61 ff 08 00
9.400000 1 100 Rx d 2 5e 02
9.410000 1 120 Rx d 8 19 03 ac 0e 50 7f 00 00
9.420000 1 200 Rx d 8 9f 99 97 8d 01 48 00 00
9.430000 1 220 Rx d 6 00 00 00 00 00 00
9.440000 1 240 Rx d 4 75 ff 05 fe
9.450000 1 260 Rx d 8 52 ff 63 00 73 ff 07 00
9.500000 1 100 Rx d 2 5f 02
9.510000 1 120 Rx d 8 1b 03 ab 0e 4d 7e 00 00
9.520000 1 200 Rx d 8 9f a5 97 61 01 48 00 00
9.530000 1 220 Rx d 6 00 00 00 00 00 00
9.540000 1 240 Rx d 4 6d ff 54 fe
9.550000 1 260 Rx d 8 46 ff 67 00 24 ff 08 00
9.600000 1 100 Rx d 2 60 02
9.610000 1 120 Rx d 8 14 03 73 0e 51 7e 00 00
9.620000 1 200 Rx d 8 9f 90 97 81 01 48 00 00
9.630000 1 220 Rx d 6 00 00 00 00 00 00
9.640000 1 240 Rx d 4 76 ff 56 fe
9.650000 1 260 Rx d 8 47 ff 53 00 6b ff 08 00
9.700000 1 100 Rx d 2 61 02
9.710000 1 120 Rx d 8 1b 03 56 0e 4f 7e 00 00
9.720000 1 200 Rx d 8 9e 9b 97 99 01 48 00 00
9.730000 1 220 Rx d 6 00 00 00 00 00 00
9.740000 1 240 Rx d 4 73 ff 76 fe
9.750000 1 260 Rx d 8 25 ff 67 00 83 ff 08 00
9.800000 1 100 Rx d 2 62 02
9.810000 1 120 Rx d 8 15 03 43 0e 4e 7e 00 00
9.820000 1 200 Rx d 8 9f b1 97 6d 01 48 00 00
9.830000 1 220 Rx d 6 00 00 00 00 00 00
9.840000 1 240 Rx d 4 75 ff 57 fe
9.850000 1 260 Rx d 8 33 ff 70 00 61 ff 08 00
9.900000 1 100 Rx d 2 63 02
9.910000 1 120 Rx d 8 12 03 11 0e 51 7e 00 00
9.920000 1 200 Rx d 8 9f 96 97 a1 01 48 00 00
9.930000 1 220 Rx d 6 00 00 00 00 00 00
9.940000 1 240 Rx d 4 6e ff a0 fe
9.950000 1 260 Rx d 8 31 ff 67 00 55 ff 08 00
10.000000 1 100 Rx d 2 64 02
10.010000 1 120 Rx d 8 17 03 1a 0e 4d 7f 00 00
10.020000 1 200 Rx d 8 9e b1 97 86 01 48 00 00
10.030000 1 220 Rx d 6 00 00 00 00 00 00
10.040000 1 240 Rx d 4 76 ff cf fe
10.050000 1 260 Rx d 8 13 ff 67 00 68 ff 08 00
10.100000 1 100 Rx d 2 65 02
10.110000 1 120 Rx d 8 0f 03 35 0e 50 7e 00 00
10.120000 1 200 Rx d 8 9f a8 97 96 01 48 00 00
10.130000 1 220 Rx d 6 00 00 00 00 00 00
10.140000 1 240 Rx d 4 7a ff cb fe
10.150000 1 260 Rx d 8 00 ff 6c 00 6c ff 08 00
10.200000 1 100 Rx d 2 66 02
10.210000 1 120 Rx d 8 14 03 2b 0e 55 7f 00 00
10.220000 1 200 Rx d 8 9f ac 97 7b 01 48 00 00
10.230000 1 220 Rx d 6 57 00 48 00 00 00
10.240000 1 240 Rx d 4 77 ff e3 fe
10.250000 1 260 Rx d 8 f0 fe 6d 00 8a ff 08 00
10.300000 1 100 Rx d 2 67 02
10.310000 1 120 Rx d 8 1c 03 68 0e 50 7e 00 00
10.320000 1 200 Rx d 8 9f 91 97 92 01 48 00 00
10.330000 1 220 Rx d 6 96 00 7b 00 00 00
10.340000 1 240 Rx d 4 77 ff 06 ff
10.350000 1 260 Rx d 8 db fe 79 00 85 ff 07 00
10.400000 1 100 Rx d 2 68 02
10.410000 1 120 Rx d 8 11 03 61 0e 57 7f 00 00
10.420000 1 200 Rx d 8 9e a7 97 b5 01 48 00 00
10.430000 1 220 Rx d 6 9d 00 81 00 00 00
10.440000 1 240 Rx d 4 79 ff 20 ff
10.450000 1 260 Rx d 8 d3 fe 79 00 2f ff 08 00
10.500000 1 100 Rx d 2 69 02
10.510000 1 120 Rx d 8 1d 03 95 0e 55 7e 00 00
10.520000 1 200 Rx d 8 9f b3 97 9b 01 48 00 00
10.530000 1 220 Rx d 6 b5 00 95 00 00 00
10.540000 1 240 Rx d 4 79 ff 57 ff
10.550000 1 260 Rx d 8 bc fe 61 00 7e ff 08 00
10.600000 1 100 Rx d 2 6a 02
10.610000 1 120 Rx d 8 18 03 6d 0e 57 7f 00 00
10.620000 1 200 Rx d 8 9f a5 97 9e 01 48 00 00
10.630000 1 220 Rx d 6 cd 00 a9 00 00 00
10.640000 1 240 Rx d 4 7d ff 70 ff
10.650000 1 260 Rx d 8 84 fe 7a 00 8b ff 07 00
10.700000 1 100 Rx d 2 6b 02
10.710000 1 120 Rx d 8 1a 03 9e 0e 52 7f 00 00
10.720000 1 200 Rx d 8 9e a3 97 95 01 48 00 00
10.730000 1 220 Rx d 6 d2 00 b0 00 00 00
10.740000 1 240 Rx d 4 7c ff 46 ff
10.750000 1 260 Rx d 8 90 fe 7f 00 50 ff 07 00
10.800000 1 100 Rx d 2 6c 02
10.810000 1 120 Rx d 8 0f 03 cc 0e 58 7f 00 00
10.820000 1 200 Rx d 8 9e a6 97 a5 01 48 00 00
10.830000 1 220 Rx d 6 e7 00 c1 00 00 00
10.840000 1 240 Rx d 4 71 ff a2 ff
10.850000 1 260 Rx d 8 83 fe 6f 00 31 ff 08 00
10.900000 1 100 Rx d 2 6d 02
10.910000 1 120 Rx d 8 19 03 fc 0e 5b 7f 00 00
10.920000 1 200 Rx d 8 9e a6 97 c3 01 48 00 00
10.930000 1 220 Rx d 6 d3 00 a9 00 00 00
10.940000 1 240 Rx d 4 79 ff c5 ff
10.950000 1 260 Rx d 8 5e fe 6c 00 90 ff 08 00
11.000000 1 100 Rx d 2 6e 02
11.010000 1 120 Rx d 8 1d 03 18 0f 59 7f 00 00
11.020000 1 200 Rx d 8 9e b3 97 ba 01 48 00 00
11.030000 1 220 Rx d 6 71 00 5e 00 00 00
11.040000 1 240 Rx d 4 79 ff b4 ff
11.050000 1 260 Rx d 8 4d fe 88 00 67 ff 08 00
11.100000 1 100 Rx d 2 6f 02
11.110000 1 120 Rx d 8 17 03 2f 0f 5a 7f 00 00
11.120000 1 200 Rx d 8 9f b2 97 87 01 48 00 00
11.130000 1 220 Rx d 6 8c 00 75 00 00 00
11.140000 1 240 Rx d 4 70 ff c4 ff
11.150000 1 260 Rx d 8 68 fe 7e 00 6b ff 07 00
11.200000 1 100 Rx d 2 70 02
11.210000 1 120 Rx d 8 17 03 54 0f 5b 7f 00 00
11.220000 1 200 Rx d 8 9e 8e 97 bb 01 48 00 00
11.230000 1 220 Rx d 6 69 00 55 00 00 00
11.240000 1 240 Rx d 4 6c ff 25 00
11.250000 1 260 Rx d 8 56 fe 84 00 59 ff 08 00
11.300000 1 100 Rx d 2 71 02
11.310000 1 120 Rx d 8 18 03 96 0f 5c 7f 00 00
11.320000 1 200 Rx d 8 9d ab 97 c2 01 48 00 00
11.330000 1 220 Rx d 6 0b 00 09 00 00 00
11.340000 1 240 Rx d 4 74 ff 22 00
11.350000 1 260 Rx d 8 5d fe 83 00 72 ff 07 00
11.400000 1 100 Rx d 2 72 02
11.410000 1 120 Rx d 8 18 03 c2 0f 60 7e 00 00
11.420000 1 200 Rx d 8 9e b1 97 aa 01 48 00 00
11.430000 1 220 Rx d 6 00 00 00 00 00 00
11.440000 1 240 Rx d 4 6c ff 4a 00
11.450000 1 260 Rx d 8 5e fe 89 00 58 ff 07 00
11.500000 1 100 Rx d 2 73 02
11.510000 1 120 Rx d 8 1d 03 a9 0f 60 7f 00 00
11.520000 1 200 Rx d 8 9e 99 97 a1 01 48 00 00
11.530000 1 220 Rx d 6 00 00 00 00 00 00
11.540000 1 240 Rx d 4 6b ff 5d 00
11.550000 1 260 Rx d 8 6d fe 87 00 3a ff 07 00
11.600000 1 100 Rx d 2 74 02
11.610000 1 120 Rx d 8 1d 03 d6 0f 5a 7f 00 00
11.620000 1 200 Rx d 8 9d 91 97 c2 01 48 00 00
11.630000 1 220 Rx d 6 00 00 00 00 00 00
11.640000 1 240 Rx d 4 67 ff 87 00
11.650000 1 260 Rx d 8 74 fe 80 00 29 ff 06 00
11.700000 1 100 Rx d 2 75 02
11.710000 1 120 Rx d 8 0e 03 eb 0f 61 7f 00 00
11.720000 1 200 Rx d 8 9d b2 97 bf 01 48 00 00
11.730000 1 220 Rx d 6 00 00 00 00 00 00
11.740000 1 240 Rx d 4 66 ff 96 00
11.750000 1 260 Rx d 8 78 fe 7f 00 1d ff 07 00
11.800000 1 100 Rx d 2 76 02
11.810000 1 120 Rx d 8 1b 03 fb 0f 63 7f 00 00
11.820000 1 200 Rx d 8 9e a4 97 cc 01 48 00 00
11.830000 1 220 Rx d 6 00 00 00 00 00 00
11.840000 1 240 Rx d 4 61 ff 9c 00
11.850000 1 260 Rx d 8 86 fe 7e 00 35 ff 07 00
11.900000 1 100 Rx d 2 77 02
11.910000 1 120 Rx d 8 1c 03 e2 0f 5f 7f 00 00
11.920000 1 200 Rx d 8 9e a9 97 b9 01 48 00 00
11.930000 1 220 Rx d 6 00 00 00 00 00 00
11.940000 1 240 Rx d 4 5a ff af 00
11.950000 1 260 Rx d 8 96 fe 89 00 60 ff 07 00
12.000000 1 100 Rx d 2 78 02
12.010000 1 120 Rx d 8 13 03 08 10 5e 7f 00 00
12.020000 1 200 Rx d 8 9e a4 97 c0 01 48 00 00
12.030000 1 220 Rx d 6 00 00 00 00 00 00
12.040000 1 240 Rx d 4 56 ff c3 00
12.050000 1 260 Rx d 8 b8 fe 9a 00 2b ff 06 00
12.100000 1 100 Rx d 2 79 02
12.110000 1 120 Rx d 8 10 03 0a 10 66 7f 00 00
12.120000 1 200 Rx d 8 9d a9 97 cd 01 48 00 00
12.130000 1 220 Rx d 6 00 00 00 00 00 00
12.140000 1 240 Rx d 4 52 ff f6 00
12.150000 1 260 Rx d 8 e1 fe 8e 00 1a ff 06 00
12.200000 1 100 Rx d 2 7a 02
12.210000 1 120 Rx d 8 1e 03 2b 10 63 7f 00 00
12.220000 1 200 Rx d 8 9e a3 97 b5 01 48 00 00
12.230000 1 220 Rx d 6 00 00 00 00 00 00
12.240000 1 240 Rx d 4 53 ff 3a 01
12.250000 1 260 Rx d 8 e3 fe 8c 00 00 ff 06 00
12.300000 1 100 Rx d 2 7b 02
12.310000 1 120 Rx d 8 17 03 0b 10 65 7f 00 00
12.320000 1 200 Rx d 8 9d 97 97 b4 01 48 00 00
12.330000 1 220 Rx d 6 00 00 00 00 00 00
12.340000 1 240 Rx d 4 58 ff 2e 01
12.350000 1 260 Rx d 8 f2 fe 86 00 06 ff 06 00
12.400000 1 100 Rx d 2 7c 02
12.410000 1 120 Rx d 8 1a 03 0b 10 65 7f 00 00
12.420000 1 200 Rx d 8 9d 91 97 ad 01 48 00 00
12.430000 1 220 Rx d 6 00 00 00 00 00 00
12.440000 1 240 Rx d 4 50 ff 3e 01
12.450000 1 260 Rx d 8 f9 fe 88 00 32 ff 06 00
12.500000 1 100 Rx d 2 7d 02
12.510000 1 120 Rx d 8 18 03 ee 0f 67 7f 00 00
12.520000 1 200 Rx d 8 9d 8d 97 c4 01 48 00 00
12.530000 1 220 Rx d 6 00 00 00 00 00 00
12.540000 1 240 Rx d 4 4e ff 42 01
12.550000 1 260 Rx d 8 09 ff 9a 00 2c ff 06 00
12.600000 1 100 Rx d 2 7e 02
12.610000 1 120 Rx d 8 1a 03 c3 0f 66 7f 00 00
12.620000 1 200 Rx d 8 9c 98 97 e1 01 48 00 00
12.630000 1 220 Rx d 6 00 00 00 00 00 00
12.640000 1 240 Rx d 4 4b ff 5b 01
12.650000 1 260 Rx d 8 2c ff 9b 00 18 ff 06 00
12.700000 1 100 Rx d 2 7f 02
12.710000 1 120 Rx d 8 17 03 8d 0f 65 7f 00 00
12.720000 1 200 Rx d 8 9d ad 97 bf 01 48 00 00
12.730000 1 220 Rx d 6 01 00 00 00 00 00
12.740000 1 240 Rx d 4 4b ff 9e 01
12.750000 1 260 Rx d 8 35 ff 98 00 17 ff 06 00
12.800000 1 100 Rx d 2 80 02
12.810000 1 120 Rx d 8 13 03 57 0f 65 7f 00 00
12.820000 1 200 Rx d 8 9d 9b 97 b7 01 48 00 00
12.830000 1 220 Rx d 6 19 00 14 00 00 00
12.840000 1 240 Rx d 4 53 ff b3 01
12.850000 1 260 Rx d 8 36 ff 99 00 05 ff 05 00
12.900000 1 100 Rx d 2 81 02
12.910000 1 120 Rx d 8 11 03 49 0f 64 7f 00 00
12.920000 1 200 Rx d 8 9d 95 97 a6 01 48 00 00
12.930000 1 220 Rx d 6 45 00 39 00 00 00
12.940000 1 240 Rx d 4 55 ff bd 01
12.950000 1 260 Rx d 8 39 ff 92 00 09 ff 06 00
13.000000 1 100 Rx d 2 82 02
13.010000 1 120 Rx d 8 0f 03 5f 0f 67 7f 00 00
13.020000 1 200 Rx d 8 9c 89 97 af 01 48 00 00
13.030000 1 220 Rx d 6 94 00 7a 00 00 00
13.040000 1 240 Rx d 4 55 ff d1 01
13.050000 1 260 Rx d 8 30 ff 94 00 61 ff 05 00
13.100000 1 100 Rx d 2 83 02
13.110000 1 120 Rx d 8 14 03 46 0f 6c 7f 00 00
13.120000 1 200 Rx d 8 9c 89 97 dd 01 48 00 00
13.130000 1 220 Rx d 6 af 00 8e 00 00 00
13.140000 1 240 Rx d 4 59 ff d0 01
13.150000 1 260 Rx d 8 30 ff b0 00 0c ff 05 00
13.200000 1 100 Rx d 2 84 02
13.210000 1 120 Rx d 8 1c 03 26 0f 69 7f 00 00
13.220000 1 200 Rx d 8 9c 9e 97 d1 01 48 00 00
13.230000 1 220 Rx d 6 b5 00 93 00 00 00
13.240000 1 240 Rx d 4 5a ff e6 01
13.250000 1 260 Rx d 8 50 ff 96 00 1d ff 06 00
13.300000 1 100 Rx d 2 85 02
13.310000 1 120 Rx d 8 15 03 da 0e 68 7f 00 00
13.320000 1 200 Rx d 8 9d 9e 97 c6 01 48 00 00
13.330000 1 220 Rx d 6 bb 00 96 00 00 00
13.340000 1 240 Rx d 4 60 ff 3f 02
13.350000 1 260 Rx d 8 28 ff 9c 00 43 ff 05 00
13.400000 1 100 Rx d 2 86 02
13.410000 1 120 Rx d 8 13 03 b2 0e 66 7f 00 00
13.420000 1 200 Rx d 8 9c 97 97 bf 01 48 00 00
13.430000 1 220 Rx d 6 a1 00 82 00 00 00
13.440000 1 240 Rx d 4 71 ff 0a 02
13.450000 1 260 Rx d 8 2a ff a6 00 53 ff 05 00
13.500000 1 100 Rx d 2 87 02
13.510000 1 120 Rx d 8 0e 03 be 0e 67 7f 00 00
13.520000 1 200 Rx d 8 9c 96 97 b0 01 48 00 00
13.530000 1 220 Rx d 6 94 00 7c 00 00 00
13.540000 1 240 Rx d 4 6d ff 27 02
13.550000 1 260 Rx d 8 31 ff a6 00 40 ff 05 00
13.600000 1 100 Rx d 2 88 02
13.610000 1 120 Rx d 8 0e 03 c9 0e 6b 7f 00 00
13.620000 1 200 Rx d 8 9c 8b 97 bf 01 48 00 00
13.630000 1 220 Rx d 6 c1 00 9b 00 00 00
13.640000 1 240 Rx d 4 77 ff 51 02
13.650000 1 260 Rx d 8 2b ff a3 00 34 ff 05 00
13.700000 1 100 Rx d 2 89 02
13.710000 1 120 Rx d 8 17 03 cd 0e 6b 7f 00 00
13.720000 1 200 Rx d 8 9c 8b 97 f4 01 48 00 00
13.730000 1 220 Rx d 6 57 00 46 00 00 00
13.740000 1 240 Rx d 4 84 ff 5d 02
13.750000 1 260 Rx d 8 23 ff 9c 00 60 ff 05 00
13.800000 1 100 Rx d 2 8a 02
13.810000 1 120 Rx d 8 16 03 bf 0e 6a 7f 00 00
13.820000 1 200 Rx d 8 9c ae 97 bb 01 48 00 00
13.830000 1 220 Rx d 6 3a 00 2f 00 00 00
13.840000 1 240 Rx d 4 8d ff 5f 02
13.850000 1 260 Rx d 8 18 ff a5 00 a0 ff 05 00
13.900000 1 100 Rx d 2 8b 02
13.910000 1 120 Rx d 8 14 03 a1 0e 6a 7f 00 00
13.920000 1 200 Rx d 8 9d 8c 97 c4 01 48 00 00
13.930000 1 220 Rx d 6 25 00 1e 00 00 00
13.940000 1 240 Rx d 4 96 ff 59 02
13.950000 1 260 Rx d 8 26 ff b6 00 7c ff 04 00
14.000000 1 100 Rx d 2 8c 02
14.010000 1 120 Rx d 8 d7 02 fa 0d 6e 7f 00 00
14.020000 1 200 Rx d 8 99 8b 97 ac fc 49 00 00
14.030000 1 220 Rx d 6 45 03 a9 02 00 01
14.040000 1 240 Rx d 4 9e ff 7c 02
14.050000 1 260 Rx d 8 40 ff 3d fe 6f ff 04 00
14.100000 1 100 Rx d 2 8d 02
14.110000 1 120 Rx d 8 d3 02 1e 0e 69 7e 00 00
14.120000 1 200 Rx d 8 99 97 97 98 fc 49 00 00
14.130000 1 220 Rx d 6 b2 04 c6 03 00 0b
14.140000 1 240 Rx d 4 b0 ff b2 02
14.150000 1 260 Rx d 8 36 ff 2e fe 7f ff 05 00
14.200000 1 100 Rx d 2 8e 02
14.210000 1 120 Rx d 8 d3 02 c8 0d 64 7e 00 00
14.220000 1 200 Rx d 8 99 96 97 84 fc 49 00 00
14.230000 1 220 Rx d 6 16 06 f6 04 00 15
14.240000 1 240 Rx d 4 c5 ff 96 02
14.250000 1 260 Rx d 8 39 ff 1f fe e9 ff 04 00
14.300000 1 100 Rx d 2 8f 02
14.310000 1 120 Rx d 8 e1 02 f6 0d 5f 7e 00 00
14.320000 1 200 Rx d 8 99 90 97 70 fc 49 00 00
14.330000 1 220 Rx d 6 ae 07 6e 06 00 1f
14.340000 1 240 Rx d 4 cf ff 8c 02
14.350000 1 260 Rx d 8 46 ff 10 fe b4 ff 04 00
14.400000 1 100 Rx d 2 90 02
14.410000 1 120 Rx d 8 d3 02 da 0d 5a 7e 00 00
14.420000 1 200 Rx d 8 99 86 97 5c fc 49 00 00
14.430000 1 220 Rx d 6 60 09 ad 07 01 29
14.440000 1 240 Rx d 4 db ff 90 02
14.450000 1 260 Rx d 8 7a ff 01 fe b5 ff 04 00
14.500000 1 100 Rx d 2 91 02
14.510000 1 120 Rx d 8 d5 02 da 0d 55 7e 00 00
14.520000 1 200 Rx d 8 99 91 97 48 fc 49 00 00
14.530000 1 220 Rx d 6 ae 0a a4 08 01 33
14.540000 1 240 Rx d 4 ea ff d6 02
14.550000 1 260 Rx d 8 77 ff f2 fd e8 ff 04 00
14.600000 1 100 Rx d 2 92 02
14.610000 1 120 Rx d 8 da 02 dd 0d 50 7e 00 00
14.620000 1 200 Rx d 8 99 a7 97 34 fc 49 00 00
14.630000 1 220 Rx d 6 12 0c be 09 01 3d
14.640000 1 240 Rx d 4 03 00 a7 02
14.650000 1 260 Rx d 8 8b ff e3 fd d9 ff 04 00
14.700000 1 100 Rx d 2 93 02
14.710000 1 120 Rx d 8 da 02 c7 0d 4b 7e 00 00
14.720000 1 200 Rx d 8 9a 96 97 20 fc 49 00 00
14.730000 1 220 Rx d 6 8a 0d 5c 0b 01 47
14.740000 1 240 Rx d 4 0b 00 9f 02
14.750000 1 260 Rx d 8 b4 ff d4 fd 0f 00 04 00
14.800000 1 100 Rx d 2 94 02
14.810000 1 120 Rx d 8 d7 02 d8 0d 46 7e 00 00
14.820000 1 200 Rx d 8 99 8b 97 0c fc 49 00 00
14.830000 1 220 Rx d 6 56 0f 79 0c 01 51
14.840000 1 240 Rx d 4 19 00 bc 02
14.850000 1 260 Rx d 8 c0 ff c5 fd 11 00 03 00
14.900000 1 100 Rx d 2 95 02
14.910000 1 120 Rx d 8 d4 02 f6 0d 41 7d 00 00
14.920000 1 200 Rx d 8 99 88 97 f8 fb 49 00 00
14.930000 1 220 Rx d 6 92 10 62 0d 01 5b
14.940000 1 240 Rx d 4 2c 00 99 02
14.950000 1 260 Rx d 8 f1 ff b6 fd 11 00 04 00
15.000000 1 100 Rx d 2 96 02
15.010000 1 120 Rx d 8 d8 02 df 0d 3c 7d 00 00
15.020000 1 200 Rx d 8 98 a8 97 e4 fb 49 00 00
15.030000 1 220 Rx d 6 ff 11 c6 0e 01 65
15.040000 1 240 Rx d 4 35 00 bd 02
15.050000 1 260 Rx d 8 0b 00 a7 fd 5c 00 03 00
15.100000 1 100 Rx d 2 97 02
15.110000 1 120 Rx d 8 e1 02 e5 0d 37 7d 00 00
15.120000 1 200 Rx d 8 99 90 97 d0 fb 49 00 00
15.130000 1 220 Rx d 6 9c 13 bd 0f 01 6f
15.140000 1 240 Rx d 4 49 00 b0 02
15.150000 1 260 Rx d 8 21 00 98 fd 39 00 03 00
15.200000 1 100 Rx d 2 98 02
15.210000 1 120 Rx d 8 d9 02 c5 0d 32 7d 00 00
15.220000 1 200 Rx d 8 99 89 97 bc fb 49 00 00
15.230000 1 220 Rx d 6 ea 14 2b 11 01 79
15.240000 1 240 Rx d 4 56 00 9c 02
15.250000 1 260 Rx d 8 58 00 89 fd 6a 00 04 00
15.300000 1 100 Rx d 2 99 02
15.310000 1 120 Rx d 8 d6 02 ef 0d 2d 7d 00 00
15.320000 1 200 Rx d 8 98 96 97 a8 fb 49 00 00
15.330000 1 220 Rx d 6 94 16 66 12 01 82
15.340000 1 240 Rx d 4 60 00 cb 02
15.350000 1 260 Rx d 8 5d 00 7a fd 9b 00 04 00
15.400000 1 100 Rx d 2 9a 02
15.410000 1 120 Rx d 8 d5 02 ad 0d 28 7d 00 00
15.420000 1 200 Rx d 8 99 84 97 94 fb 49 00 00
15.430000 1 220 Rx d 6 01 18 58 13 01 82
15.440000 1 240 Rx d 4 74 00 97 02
15.450000 1 260 Rx d 8 84 00 6b fd b7 00 02 00
15.500000 1 100 Rx d 2 9b 02
15.510000 1 120 Rx d 8 e2 02 b9 0d 23 7d 00 00
15.520000 1 200 Rx d 8 98 95 97 80 fb 49 00 00
15.530000 1 220 Rx d 6 67 19 1c 15 01 82
15.540000 1 240 Rx d 4 79 00 ac 02
15.550000 1 260 Rx d 8 a9 00 5c fd 6d 00 03 00
15.600000 1 100 Rx d 2 9c 02
15.610000 1 120 Rx d 8 d7 02 9c 0d 1e 7c 00 00
15.620000 1 200 Rx d 8 99 90 97 6c fb 49 00 00
15.630000 1 220 Rx d 6 22 1b e9 15 01 82
15.640000 1 240 Rx d 4 89 00 c2 02
15.650000 1 260 Rx d 8 be 00 4d fd d3 00 03 00
15.700000 1 100 Rx d 2 9d 02
15.710000 1 120 Rx d 8 d5 02 54 0d 19 7c 00 00
15.720000 1 200 Rx d 8 98 86 97 58 fb 49 00 00
15.730000 1 220 Rx d 6 63 1c 51 17 01 82
15.740000 1 240 Rx d 4 98 00 bc 02
15.750000 1 260 Rx d 8 ae 00 3e fd ce 00 02 00
15.800000 1 100 Rx d 2 9e 02
15.810000 1 120 Rx d 8 da 02 69 0d 14 7c 00 00
15.820000 1 200 Rx d 8 98 9f 97 44 fb 49 00 00
15.830000 1 220 Rx d 6 02 1e 14 19 01 82
15.840000 1 240 Rx d 4 a2 00 73 02
15.850000 1 260 Rx d 8 db 00 2f fd 9d 00 02 00
15.900000 1 100 Rx d 2 9f 02
15.910000 1 120 Rx d 8 d3 02 20 0d 0f 7c 00 00
15.920000 1 200 Rx d 8 99 89 97 30 fb 49 00 00
15.930000 1 220 Rx d 6 a1 1f 7b 1a 01 82
15.940000 1 240 Rx d 4 a1 00 ab 02
15.950000 1 260 Rx d 8 da 00 20 fd a1 00 02 00
16.000000 1 100 Rx d 2 a0 03
16.010000 1 120 Rx d 8 db 02 1c 0f 64 7f 00 00
16.020000 1 200 Rx d 8 9c 9d 97 da 01 48 00 00
16.030000 1 220 Rx d 6 e8 00 bb 00 00 00
16.040000 1 240 Rx d 4 77 00 8c 02
16.050000 1 260 Rx d 8 c7 00 8f 00 87 00 02 00
16.100000 1 100 Rx d 2 a1 03
16.110000 1 120 Rx d 8 dc 02 32 0f 62 7e 00 00
16.120000 1 200 Rx d 8 9c ac 97 d5 01 48 00 00
16.130000 1 220 Rx d 6 9c 00 82 00 00 00
16.140000 1 240 Rx d 4 79 00 4e 02
16.150000 1 260 Rx d 8 cb 00 95 00 b0 00 01 00
16.200000 1 100 Rx d 2 a2 03
16.210000 1 120 Rx d 8 dc 02 07 0f 66 7e 00 00
16.220000 1 200 Rx d 8 9d af 97 b2 01 48 00 00
16.230000 1 220 Rx d 6 c7 00 a5 00 00 00
16.240000 1 240 Rx d 4 76 00 44 02
16.250000 1 260 Rx d 8 d4 00 9f 00 65 00 02 00
16.300000 1 100 Rx d 2 a3 03
16.310000 1 120 Rx d 8 e9 02 15 0f 61 7f 00 00
16.320000 1 200 Rx d 8 9d 8f 97 d4 01 48 00 00
16.330000 1 220 Rx d 6 93 00 76 00 00 00
16.340000 1 240 Rx d 4 79 00 48 02
16.350000 1 260 Rx d 8 e0 00 88 00 b4 00 02 00
16.400000 1 100 Rx d 2 a4 03
16.410000 1 120 Rx d 8 e3 02 0f 0f 63 7f 00 00
16.420000 1 200 Rx d 8 9c ae 97 cc 01 48 00 00
16.430000 1 220 Rx d 6 3a 00 2f 00 00 00
16.440000 1 240 Rx d 4 7e 00 57 02
16.450000 1 260 Rx d 8 c0 00 9c 00 c3 00 01 00
16.500000 1 100 Rx d 2 a5 03
16.510000 1 120 Rx d 8 ec 02 1d 0f 65 7e 00 00
16.520000 1 200 Rx d 8 9d a7 97 ad 01 48 00 00
16.530000 1 220 Rx d 6 11 00 0e 00 00 00
16.540000 1 240 Rx d 4 85 00 0d 02
16.550000 1 260 Rx d 8 d9 00 9d 00 8d 00 01 00
16.600000 1 100 Rx d 2 a6 03
16.610000 1 120 Rx d 8 f5 02 d9 0e 64 7f 00 00
16.620000 1 200 Rx d 8 9c 8e 97 ae 01 48 00 00
16.630000 1 220 Rx d 6 00 00 00 00 00 00
16.640000 1 240 Rx d 4 7e 00 36 02
16.650000 1 260 Rx d 8 d8 00 88 00 94 00 01 00
16.700000 1 100 Rx d 2 a7 03
16.710000 1 120 Rx d 8 f9 02 dd 0e 5d 7f 00 00
16.720000 1 200 Rx d 8 9c 8e 97 a7 01 48 00 00
16.730000 1 220 Rx d 6 00 00 00 00 00 00
16.740000 1 240 Rx d 4 87 00 2a 02
16.750000 1 260 Rx d 8 bb 00 8b 00 87 00 01 00
16.800000 1 100 Rx d 2 a8 03
16.810000 1 120 Rx d 8 ef 02 af 0e 63 7e 00 00
16.820000 1 200 Rx d 8 9c 98 97 d0 01 48 00 00
16.830000 1 220 Rx d 6 00 00 00 00 00 00
16.840000 1 240 Rx d 4 89 00 e4 01
16.850000 1 260 Rx d 8 be 00 81 00 8f 00 01 00
16.900000 1 100 Rx d 2 a9 03
16.910000 1 120 Rx d 8 ff 02 85 0e 60 7e 00 00
16.920000 1 200 Rx d 8 9c a8 97 9e 01 48 00 00
16.930000 1 220 Rx d 6 00 00 00 00 00 00
16.940000 1 240 Rx d 4 82 00 dc 01
16.950000 1 260 Rx d 8 b3 00 81 00 83 00 01 00
17.000000 1 100 Rx d 2 aa 03
17.010000 1 120 Rx d 8 fd 02 48 0e 5a 7e 00 00
17.020000 1 200 Rx d 8 9c 8d 97 b9 01 48 00 00
17.030000 1 220 Rx d 6 00 00 00 00 00 00
17.040000 1 240 Rx d 4 83 00 b2 01
17.050000 1 260 Rx d 8 b7 00 7d 00 b5 00 01 00
17.100000 1 100 Rx d 2 ab 03
17.110000 1 120 Rx d 8 f6 02 29 0e 5a 7f 00 00
17.120000 1 200 Rx d 8 9b a9 97 bd 01 48 00 00
17.130000 1 220 Rx d 6 00 00 00 00 00 00
17.140000 1 240 Rx d 4 80 00 a0 01
17.150000 1 260 Rx d 8 ba 00 8a 00 aa 00 00 00
17.200000 1 100 Rx d 2 ac 03
17.210000 1 120 Rx d 8 f8 02 44 0e 5b 7e 00 00
17.220000 1 200 Rx d 8 9c ae 97 9b 01 48 00 00
17.230000 1 220 Rx d 6 00 00 00 00 00 00
17.240000 1 240 Rx d 4 80 00 86 01
17.250000 1 260 Rx d 8 d5 00 85 00 81 00 01 00
17.300000 1 100 Rx d 2 ad 03
17.310000 1 120 Rx d 8 fe 02 1b 0e 5d 7f 00 00
17.320000 1 200 Rx d 8 9c 95 97 ab 01 48 00 00
17.330000 1 220 Rx d 6 00 00 00 00 00 00
17.340000 1 240 Rx d 4 80 00 95 01
17.350000 1 260 Rx d 8 dd 00 77 00 b6 00 00 00
17.400000 1 100 Rx d 2 ae 03
17.410000 1 120 Rx d 8 05 03 3d 0e 56 7f 00 00
17.420000 1 200 Rx d 8 9c 9a 97 89 01 48 00 00
17.430000 1 220 Rx d 6 00 00 00 00 00 00
17.440000 1 240 Rx d 4 85 00 76 01
17.450000 1 260 Rx d 8 d9 00 85 00 a1 00 00 00
17.500000 1 100 Rx d 2 af 03
17.510000 1 120 Rx d 8 fb 02 3d 0e 5b 7e 00 00
17.520000 1 200 Rx d 8 9c 90 97 9c 01 48 00 00
17.530000 1 220 Rx d 6 00 00 00 00 00 00
17.540000 1 240 Rx d 4 84 00 3b 01
17.550000 1 260 Rx d 8 ff 00 7a 00 ab 00 00 00
17.600000 1 100 Rx d 2 b0 03
17.610000 1 120 Rx d 8 07 03 33 0e 5b 7e 00 00
17.620000 1 200 Rx d 8 9b 92 97 99 01 48 00 00
17.630000 1 220 Rx d 6 00 00 00 00 00 00
17.640000 1 240 Rx d 4 7f 00 4c 01
17.650000 1 260 Rx d 8 06 01 7b 00 af 00 ff 00
17.700000 1 100 Rx d 2 b1 03
17.710000 1 120 Rx d 8 09 03 28 0e 56 7e 00 00
17.720000 1 200 Rx d 8 9b 91 97 a5 01 48 00 00
17.730000 1 220 Rx d 6 00 00 00 00 00 00
17.740000 1 240 Rx d 4 86 00 1c 01
17.750000 1 260 Rx d 8 1e 01 7c 00 71 00 00 00
17.800000 1 100 Rx d 2 b2 03
17.810000 1 120 Rx d 8 ff 02 01 0e 56 7e 00 00
17.820000 1 200 Rx d 8 9b a4 97 a2 01 48 00 00
17.830000 1 220 Rx d 6 00 00 00 00 00 00
17.840000 1 240 Rx d 4 83 00 09 01
17.850000 1 260 Rx d 8 37 01 65 00 b9 00 00 00
17.900000 1 100 Rx d 2 b3 03
17.910000 1 120 Rx d 8 01 03 0b 0e 53 7e 00 00
17.920000 1 200 Rx d 8 9c a2 97 80 01 48 00 00
17.930000 1 220 Rx d 6 17 00 13 00 00 00
17.940000 1 240 Rx d 4 85 00 f6 00
17.950000 1 260 Rx d 8 31 01 7a 00 ad 00 00 00
18.000000 1 100 Rx d 2 b4 03
18.010000 1 120 Rx d 8 fc 02 0b 0e 53 7e 00 00
18.020000 1 200 Rx d 8 9c 92 97 a0 01 48 00 00
18.030000 1 220 Rx d 6 31 00 28 00 00 00
18.040000 1 240 Rx d 4 88 00 a2 00
18.050000 1 260 Rx d 8 64 01 73 00 ce 00 00 00
18.100000 1 100 Rx d 2 b5 03
18.110000 1 120 Rx d 8 fc 02 42 0e 52 7e 00 00
18.120000 1 200 Rx d 8 9b a6 97 8c 01 48 00 00
18.130000 1 220 Rx d 6 66 00 55 00 00 00
18.140000 1 240 Rx d 4 81 00 c2 00
18.150000 1 260 Rx d 8 72 01 7b 00 bc 00 ff 00
18.200000 1 100 Rx d 2 b6 03
18.210000 1 120 Rx d 8 fb 02 63 0e 55 7e 00 00
18.220000 1 200 Rx d 8 9c 9c 97 9c 01 48 00 00
18.230000 1 220 Rx d 6 96 00 78 00 00 00
18.240000 1 240 Rx d 4 8c 00 99 00
18.250000 1 260 Rx d 8 91 01 76 00 c5 00 ff 00
18.300000 1 100 Rx d 2 b7 03
18.310000 1 120 Rx d 8 01 03 6b 0e 54 7e 00 00
18.320000 1 200 Rx d 8 9c a0 97 9e 01 48 00 00
18.330000 1 220 Rx d 6 7e 00 69 00 00 00
18.340000 1 240 Rx d 4 8c 00 95 00
18.350000 1 260 Rx d 8 9d 01 73 00 bf 00 ff 00
18.400000 1 100 Rx d 2 b8 03
18.410000 1 120 Rx d 8 fe 02 92 0e 50 7e 00 00
18.420000 1 200 Rx d 8 9c a4 97 69 01 48 00 00
18.430000 1 220 Rx d 6 d1 00 ac 00 00 00
18.440000 1 240 Rx d 4 93 00 70 00
18.450000 1 260 Rx d 8 a9 01 6f 00 ce 00 ff 00
18.500000 1 100 Rx d 2 b9 03
18.510000 1 120 Rx d 8 f5 02 94 0e 53 7e 00 00
18.520000 1 200 Rx d 8 9c 89 97 a1 01 48 00 00
18.530000 1 220 Rx d 6 d0 00 af 00 00 00
18.540000 1 240 Rx d 4 94 00 4f 00
18.550000 1 260 Rx d 8 af 01 70 00 b9 00 fe 00
18.600000 1 100 Rx d 2 ba 03
18.610000 1 120 Rx d 8 fb 02 be 0e 50 7e 00 00
18.620000 1 200 Rx d 8 9b a5 97 8f 01 48 00 00
18.630000 1 220 Rx d 6 ea 00 c3 00 00 00
18.640000 1 240 Rx d 4 97 00 2c 00
18.650000 1 260 Rx d 8 b9 01 67 00 ab 00 ff 00
18.700000 1 100 Rx d 2 bb 03
18.710000 1 120 Rx d 8 f4 02 ce 0e 51 7e 00 00
18.720000 1 200 Rx d 8 9c a1 97 a2 01 48 00 00
18.730000 1 220 Rx d 6 d7 00 b2 00 00 00
18.740000 1 240 Rx d 4 9a 00 15 00
18.750000 1 260 Rx d 8 b1 01 60 00 c6 00 fe 00
18.800000 1 100 Rx d 2 bc 03
18.810000 1 120 Rx d 8 f3 02 b0 0e 51 7e 00 00
18.820000 1 200 Rx d 8 9c ad 97 9d 01 48 00 00
18.830000 1 220 Rx d 6 be 00 9d 00 00 00
18.840000 1 240 Rx d 4 9e 00 e5 ff
18.850000 1 260 Rx d 8 a7 01 66 00 bf 00 ff 00
18.900000 1 100 Rx d 2 bd 03
18.910000 1 120 Rx d 8 f2 02 dc 0e 4b 7e 00 00
18.920000 1 200 Rx d 8 9c aa 97 88 01 48 00 00
18.930000 1 220 Rx d 6 99 00 7f 00 00 00
18.940000 1 240 Rx d 4 9f 00 ba ff
18.950000 1 260 Rx d 8 aa 01 61 00 e8 00 fe 00
19.000000 1 100 Rx d 2 be 03
19.010000 1 120 Rx d 8 e3 02 d8 0e 51 7e 00 00
19.020000 1 200 Rx d 8 9c a8 97 95 01 48 00 00
19.030000 1 220 Rx d 6 78 00 63 00 00 00
19.040000 1 240 Rx d 4 a1 00 b0 ff
19.050000 1 260 Rx d 8 9b 01 6c 00 d7 00 fd 00
19.100000 1 100 Rx d 2 bf 03
19.110000 1 120 Rx d 8 ec 02 13 0f 4f 7e 00 00
19.120000 1 200 Rx d 8 9c a5 97 95 01 48 00 00
19.130000 1 220 Rx d 6 39 00 2f 00 00 00
19.140000 1 240 Rx d 4 a8 00 89 ff
19.150000 1 260 Rx d 8 9d 01 65 00 a1 00 fd 00
19.200000 1 100 Rx d 2 c0 03
19.210000 1 120 Rx d 8 e6 02 11 0f 51 7e 00 00
19.220000 1 200 Rx d 8 9c a8 97 8d 01 48 00 00
19.230000 1 220 Rx d 6 00 00 00 00 00 00
19.240000 1 240 Rx d 4 aa 00 8c ff
19.250000 1 260 Rx d 8 85 01 52 00 b6 00 fe 00
19.300000 1 100 Rx d 2 c1 03
19.310000 1 120 Rx d 8 e7 02 13 0f 50 7e 00 00
19.320000 1 200 Rx d 8 9c 9f 97 7f 01 48 00 00
19.330000 1 220 Rx d 6 00 00 00 00 00 00
19.340000 1 240 Rx d 4 b2 00 60 ff
19.350000 1 260 Rx d 8 5a 01 56 00 fd 00 fe 00
19.400000 1 100 Rx d 2 c2 03
19.410000 1 120 Rx d 8 e2 02 fb 0e 4f 7e 00 00
19.420000 1 200 Rx d 8 9c 97 97 8b 01 48 00 00
19.430000 1 220 Rx d 6 00 00 00 00 00 00
19.440000 1 240 Rx d 4 b3 00 13 ff
19.450000 1 260 Rx d 8 4c 01 68 00 e4 00 fe 00
19.500000 1 100 Rx d 2 c3 03
19.510000 1 120 Rx d 8 de 02 ec 0e 4e 7e 00 00
19.520000 1 200 Rx d 8 9c a0 97 82 01 48 00 00
19.530000 1 220 Rx d 6 00 00 00 00 00 00
19.540000 1 240 Rx d 4 ae 00 05 ff
19.550000 1 260 Rx d 8 50 01 5f 00 fa 00 fd 00
19.600000 1 100 Rx d 2 c4 03
19.610000 1 120 Rx d 8 d9 02 c5 0e 4f 7e 00 00
19.620000 1 200 Rx d 8 9c 9c 97 9b 01 48 00 00
19.630000 1 220 Rx d 6 00 00 00 00 00 00
19.640000 1 240 Rx d 4 b2 00 1b ff
19.650000 1 260 Rx d 8 2f 01 67 00 ac 00 fd 00
19.700000 1 100 Rx d 2 c5 03
19.710000 1 120 Rx d 8 d7 02 97 0e 4d 7e 00 00
19.720000 1 200 Rx d 8 9c ac 97 89 01 48 00 00
19.730000 1 220 Rx d 6 00 00 00 00 00 00
19.740000 1 240 Rx d 4 bc 00 eb fe
19.750000 1 260 Rx d 8 26 01 4e 00 bc 00 fc 00
19.800000 1 100 Rx d 2 c6 03
19.810000 1 120 Rx d 8 d0 02 78 0e 4b 7e 00 00
19.820000 1 200 Rx d 8 9c a5 97 60 01 48 00 00
19.830000 1 220 Rx d 6 00 00 00 00 00 00
19.840000 1 240 Rx d 4 ba 00 e6 fe
19.850000 1 260 Rx d 8 f0 00 4f 00 b4 00 fc 00
19.900000 1 100 Rx d 2 c7 03
19.910000 1 120 Rx d 8 ca 02 50 0e 4d 7e 00 00
19.920000 1 200 Rx d 8 9c 8c 97 70 01 48 00 00
19.930000 1 220 Rx d 6 00 00 00 00 00 00
19.940000 1 240 Rx d 4 bd 00 89 fe
19.950000 1 260 Rx d 8 e1 00 4d 00 b6 00 fc 00
20.000000 1 100 Rx d 2 c8 03
20.010000 1 120 Rx d 8 ca 02 53 0e 4c 7e 00 00
20.020000 1 200 Rx d 8 9b 92 97 92 01 48 00 00
20.030000 1 220 Rx d 6 00 00 00 00 00 00
20.040000 1 240 Rx d 4 b3 00 74 fe
20.050000 1 260 Rx d 8 cf 00 4c 00 be 00 fc 00
20.100000 1 100 Rx d 2 c9 03
20.110000 1 120 Rx d 8 c5 02 2b 0e 4f 7d 00 00
20.120000 1 200 Rx d 8 9b ab 97 8c 01 48 00 00
20.130000 1 220 Rx d 6 00 00 00 00 00 00
20.140000 1 240 Rx d 4 b3 00 57 fe
20.150000 1 260 Rx d 8 c2 00 53 00 db 00 fc 00
20.200000 1 100 Rx d 2 ca 03
20.210000 1 120 Rx d 8 c8 02 df 0d 4e 7d 00 00
20.220000 1 200 Rx d 8 9c a2 97 98 01 48 00 00
20.230000 1 220 Rx d 6 00 00 00 00 00 00
20.240000 1 240 Rx d 4 b0 00 3d fe
20.250000 1 260 Rx d 8 c0 00 5c 00 d8 00 fc 00
20.300000 1 100 Rx d 2 cb 03
20.310000 1 120 Rx d 8 c3 02 a0 0d 49 7e 00 00
20.320000 1 200 Rx d 8 9c ac 97 58 01 48 00 00
20.330000 1 220 Rx d 6 00 00 00 00 00 00
20.340000 1 240 Rx d 4 ad 00 36 fe
20.350000 1 260 Rx d 8 c5 00 5c 00 c7 00 fc 00
20.400000 1 100 Rx d 2 cc 03
20.410000 1 120 Rx d 8 b6 02 94 0d 4b 7e 00 00
20.420000 1 200 Rx d 8 9c 8c 97 60 01 47 00 00
20.430000 1 220 Rx d 6 00 00 00 00 00 00
20.440000 1 240 Rx d 4 ac 00 37 fe
20.450000 1 260 Rx d 8 c1 00 58 00 c5 00 fc 00
20.500000 1 100 Rx d 2 cd 03
20.510000 1 120 Rx d 8 b7 02 82 0d 50 7e 00 00
20.520000 1 200 Rx d 8 9b 8c 97 6c 01 48 00 00
20.530000 1 220 Rx d 6 00 00 00 00 00 00
20.540000 1 240 Rx d 4 ab 00 21 fe
20.550000 1 260 Rx d 8 bb 00 59 00 f9 00 fb 00
20.600000 1 100 Rx d 2 ce 03
20.610000 1 120 Rx d 8 bf 02 8a 0d 4e 7d 00 00
20.620000 1 200 Rx d 8 9b 8a 97 65 01 48 00 00
20.630000 1 220 Rx d 6 14 00 10 00 00 00
20.640000 1 240 Rx d 4 a5 00 02 fe
20.650000 1 260 Rx d 8 bc 00 69 00 a0 00 fc 00
20.700000 1 100 Rx d 2 cf 03
20.710000 1 120 Rx d 8 b9 02 29 0d 51 7d 00 00
20.720000 1 200 Rx d 8 9b 89 97 79 01 48 00 00
20.730000 1 220 Rx d 6 58 00 48 00 00 00
20.740000 1 240 Rx d 4 9e 00 ee fd
20.750000 1 260 Rx d 8 d4 00 51 00 dd 00 fc 00
20.800000 1 100 Rx d 2 d0 03
20.810000 1 120 Rx d 8 bc 02 fa 0c 4a 7d 00 00
20.820000 1 200 Rx d 8 9b 91 97 77 01 48 00 00
20.830000 1 220 Rx d 6 81 00 69 00 00 00
20.840000 1 240 Rx d 4 96 00 05 fe
20.850000 1 260 Rx d 8 b8 00 68 00 cf 00 fc 00
20.900000 1 100 Rx d 2 d1 03
20.910000 1 120 Rx d 8 ad 02 b9 0c 4b 7d 00 00
20.920000 1 200 Rx d 8 9c 9d 97 7a 01 47 00 00
20.930000 1 220 Rx d 6 98 00 7c 00 00 00
20.940000 1 240 Rx d 4 95 00 b1 fd
20.950000 1 260 Rx d 8 d9 00 67 00 e3 00 fc 00
21.000000 1 100 Rx d 2 d2 03
21.010000 1 120 Rx d 8 ad 02 a9 0c 4b 7d 00 00
21.020000 1 200 Rx d 8 9c 9e 97 72 01 47 00 00
21.030000 1 220 Rx d 6 b0 00 93 00 00 00
21.040000 1 240 Rx d 4 82 00 d8 fd
21.050000 1 260 Rx d 8 db 00 6f 00 b9 00 fc 00
21.100000 1 100 Rx d 2 d3 03
21.110000 1 120 Rx d 8 ab 02 ac 0c 4b 7d 00 00
21.120000 1 200 Rx d 8 9c 99 97 73 01 47 00 00
21.130000 1 220 Rx d 6 e8 00 bb 00 00 00
21.140000 1 240 Rx d 4 81 00 c4 fd
21.150000 1 260 Rx d 8 e8 00 6a 00 bd 00 fb 00
21.200000 1 100 Rx d 2 d4 03
21.210000 1 120 Rx d 8 ab 02 ca 0c 4d 7d 00 00
21.220000 1 200 Rx d 8 9c 98 97 99 01 48 00 00
21.230000 1 220 Rx d 6 a8 00 8c 00 00 00
21.240000 1 240 Rx d 4 76 00 c6 fd
21.250000 1 260 Rx d 8 e3 00 6d 00 96 00 fb 00
21.300000 1 100 Rx d 2 d5 03
21.310000 1 120 Rx d 8 ae 02 e6 0c 50 7d 00 00
21.320000 1 200 Rx d 8 9c ae 97 70 01 47 00 00
21.330000 1 220 Rx d 6 d8 00 b4 00 00 00
21.340000 1 240 Rx d 4 6e 00 a8 fd
21.350000 1 260 Rx d 8 e5 00 67 00 79 00 fb 00
21.400000 1 100 Rx d 2 d6 03
21.410000 1 120 Rx d 8 b3 02 f5 0c 51 7d 00 00
21.420000 1 200 Rx d 8 9d 8e 97 9c 01 48 00 00
21.430000 1 220 Rx d 6 c0 00 a1 00 00 00
21.440000 1 240 Rx d 4 60 00 a0 fd
21.450000 1 260 Rx d 8 d9 00 62 00 73 00 fb 00
21.500000 1 100 Rx d 2 d7 03
21.510000 1 120 Rx d 8 b4 02 ff 0c 51 7e 00 00
21.520000 1 200 Rx d 8 9c a8 97 98 01 48 00 00
21.530000 1 220 Rx d 6 b4 00 96 00 00 00
21.540000 1 240 Rx d 4 55 00 80 fd
21.550000 1 260 Rx d 8 cb 00 67 00 64 00 fb 00
21.600000 1 100 Rx d 2 d8 03
21.610000 1 120 Rx d 8 b3 02 39 0d 51 7d 00 00
21.620000 1 200 Rx d 8 9d a8 97 a7 01 48 00 00
21.630000 1 220 Rx d 6 7e 00 69 00 00 00
21.640000 1 240 Rx d 4 46 00 65 fd
21.650000 1 260 Rx d 8 c6 00 68 00 6c 00 fa 00
21.700000 1 100 Rx d 2 d9 03
21.710000 1 120 Rx d 8 b4 02 2c 0d 56 7e 00 00
21.720000 1 200 Rx d 8 9d b1 97 aa 01 48 00 00
21.730000 1 220 Rx d 6 57 00 48 00 00 00
21.740000 1 240 Rx d 4 37 00 65 fd
21.750000 1 260 Rx d 8 b9 00 72 00 27 00 fb 00
21.800000 1 100 Rx d 2 da 03
21.810000 1 120 Rx d 8 be 02 79 0d 50 7e 00 00
21.820000 1 200 Rx d 8 9d a9 97 9b 01 48 00 00
21.830000 1 220 Rx d 6 14 00 10 00 00 00
21.840000 1 240 Rx d 4 2c 00 5b fd
21.850000 1 260 Rx d 8 b3 00 64 00 3e 00 fa 00
21.900000 1 100 Rx d 2 db 03
21.910000 1 120 Rx d 8 b3 02 92 0d 57 7e 00 00
21.920000 1 200 Rx d 8 9d ab 97 9f 01 48 00 00
21.930000 1 220 Rx d 6 00 00 00 00 00 00
21.940000 1 240 Rx d 4 1f 00 69 fd
21.950000 1 260 Rx d 8 8a 00 71 00 1c 00 fa 00
22.000000 1 100 Rx d 2 dc 03
22.010000 1 120 Rx d 8 c0 02 ed 0d 57 7e 00 00
22.020000 1 200 Rx d 8 9d a1 97 94 01 48 00 00
22.030000 1 220 Rx d 6 00 00 00 00 00 00
22.040000 1 240 Rx d 4 16 00 39 fd
22.050000 1 260 Rx d 8 81 00 6d 00 fe ff fb 00
22.100000 1 100 Rx d 2 dd 03
22.110000 1 120 Rx d 8 c2 02 0f 0e 5a 7e 00 00
22.120000 1 200 Rx d 8 9d 99 97 a3 01 48 00 00
22.130000 1 220 Rx d 6 00 00 00 00 00 00
22.140000 1 240 Rx d 4 03 00 52 fd
22.150000 1 260 Rx d 8 60 00 6a 00 23 00 fa 00
22.200000 1 100 Rx d 2 de 03
22.210000 1 120 Rx d 8 c8 02 42 0e 59 7e 00 00
22.220000 1 200 Rx d 8 9c 9d 97 a0 01 48 00 00
22.230000 1 220 Rx d 6 00 00 00 00 00 00
22.240000 1 240 Rx d 4 fc ff 40 fd
22.250000 1 260 Rx d 8 3c 00 7e 00 ff ff fa 00
22.300000 1 100 Rx d 2 df 03
22.310000 1 120 Rx d 8 c8 02 52 0e 5a 7e 00 00
22.320000 1 200 Rx d 8 9d 9d 97 b3 01 48 00 00
22.330000 1 220 Rx d 6 00 00 00 00 00 00
22.340000 1 240 Rx d 4 ee ff 2e fd
22.350000 1 260 Rx d 8 35 00 77 00 05 00 fa 00
22.400000 1 100 Rx d 2 e0 03
22.410000 1 120 Rx d 8 cc 02 65 0e 59 7e 00 00
22.420000 1 200 Rx d 8 9d a7 97 90 01 48 00 00
22.430000 1 220 Rx d 6 00 00 00 00 00 00
22.440000 1 240 Rx d 4 e1 ff 5d fd
22.450000 1 260 Rx d 8 0b 00 80 00 c2 ff fa 00
22.500000 1 100 Rx d 2 e1 03
22.510000 1 120 Rx d 8 cb 02 82 0e 58 7e 00 00
22.520000 1 200 Rx d 8 9d 93 97 a4 01 48 00 00
22.530000 1 220 Rx d 6 00 00 00 00 00 00
22.540000 1 240 Rx d 4 dd ff 47 fd
22.550000 1 260 Rx d 8 f5 ff 73 00 bf ff fa 00
22.600000 1 100 Rx d 2 e2 03
22.610000 1 120 Rx d 8 cb 02 a4 0e 5a 7e 00 00
22.620000 1 200 Rx d 8 9d a1 97 9e 01 48 00 00
22.630000 1 220 Rx d 6 00 00 00 00 00 00
22.640000 1 240 Rx d 4 d0 ff 5b fd
22.650000 1 260 Rx d 8 c1 ff 76 00 cf ff fa 00
22.700000 1 100 Rx d 2 e3 03
22.710000 1 120 Rx d 8 d0 02 e3 0e 5b 7e 00 00
22.720000 1 200 Rx d 8 9d 9a 97 95 01 48 00 00
22.730000 1 220 Rx d 6 00 00 00 00 00 00
22.740000 1 240 Rx d 4 c9 ff 35 fd
22.750000 1 260 Rx d 8 a4 ff 82 00 ec ff fa 00
22.800000 1 100 Rx d 2 e4 03
22.810000 1 120 Rx d 8 d4 02 e6 0e 5e 7e 00 00
22.820000 1 200 Rx d 8 9d 92 97 c2 01 48 00 00
22.830000 1 220 Rx d 6 00 00 00 00 00 00
22.840000 1 240 Rx d 4 ba ff 3a fd
22.850000 1 260 Rx d 8 95 ff 8f 00 d5 ff fa 00
22.900000 1 100 Rx d 2 e5 03
22.910000 1 120 Rx d 8 db 02 15 0f 5a 7e 00 00
22.920000 1 200 Rx d 8 9d aa 97 a7 01 48 00 00
22.930000 1 220 Rx d 6 00 00 00 00 00 00
22.940000 1 240 Rx d 4 b2 ff 58 fd
22.950000 1 260 Rx d 8 8b ff 90 00 ba ff f9 00
23.000000 1 100 Rx d 2 e6 03
23.010000 1 120 Rx d 8 d7 02 14 0f 5e 7e 00 00
23.020000 1 200 Rx d 8 9d a0 97 c0 01 48 00 00
23.030000 1 220 Rx d 6 00 00 00 00 00 00
23.040000 1 240 Rx d 4 ae ff 7d fd
23.050000 1 260 Rx d 8 73 ff 8d 00 74 ff fa 00
23.100000 1 100 Rx d 2 e7 03
23.110000 1 120 Rx d 8 e0 02 22 0f 5e 7e 00 00
23.120000 1 200 Rx d 8 9d a9 97 a0 01 48 00 00
23.130000 1 220 Rx d 6 00 00 00 00 00 00
23.140000 1 240 Rx d 4 ac ff 80 fd
23.150000 1 260 Rx d 8 59 ff 7b 00 cb ff f9 00
23.200000 1 100 Rx d 2 e8 03
23.210000 1 120 Rx d 8 e1 02 4c 0f 5d 7e 00 00
23.220000 1 200 Rx d 8 9e 95 97 9f 01 48 00 00
23.230000 1 220 Rx d 6 26 00 20 00 00 00
23.240000 1 240 Rx d 4 a6 ff 7b fd
23.250000 1 260 Rx d 8 30 ff 98 00 9b ff f9 00
23.300000 1 100 Rx d 2 e9 03
23.310000 1 120 Rx d 8 e1 02 52 0f 63 7f 00 00
23.320000 1 200 Rx d 8 9d 95 97 c3 01 48 00 00
23.330000 1 220 Rx d 6 72 00 5f 00 00 00
23.340000 1 240 Rx d 4 9f ff 51 fd
23.350000 1 260 Rx d 8 49 ff 8e 00 6c ff f9 00
23.400000 1 100 Rx d 2 ea 03
23.410000 1 120 Rx d 8 ee 02 78 0f 61 7e 00 00
23.420000 1 200 Rx d 8 9d a2 97 d5 01 48 00 00
23.430000 1 220 Rx d 6 98 00 7e 00 00 00
23.440000 1 240 Rx d 4 92 ff a4 fd
23.450000 1 260 Rx d 8 31 ff 85 00 93 ff f9 00
23.500000 1 100 Rx d 2 eb 03
23.510000 1 120 Rx d 8 ed 02 4a 0f 64 7e 00 00
23.520000 1 200 Rx d 8 9e b1 97 da 01 48 00 00
23.530000 1 220 Rx d 6 ac 00 8a 00 00 00
23.540000 1 240 Rx d 4 99 ff 8f fd
23.550000 1 260 Rx d 8 1d ff 97 00 69 ff f9 00
23.600000 1 100 Rx d 2 ec 03
23.610000 1 120 Rx d 8 f4 02 38 0f 61 7f 00 00
23.620000 1 200 Rx d 8 9e b1 97 c6 01 48 00 00
23.630000 1 220 Rx d 6 92 00 7b 00 00 00
23.640000 1 240 Rx d 4 91 ff 7e fd
23.650000 1 260 Rx d 8 31 ff 8a 00 5c ff f9 00
23.700000 1 100 Rx d 2 ed 03
23.710000 1 120 Rx d 8 ee 02 2d 0f 62 7f 00 00
23.720000 1 200 Rx d 8 9e a9 97 a1 01 48 00 00
23.730000 1 220 Rx d 6 ea 00 c0 00 00 00
23.740000 1 240 Rx d 4 8a ff b7 fd
23.750000 1 260 Rx d 8 1e ff 8b 00 5b ff f8 00
23.800000 1 100 Rx d 2 ee 03
23.810000 1 120 Rx d 8 f2 02 4d 0f 65 7f 00 00
23.820000 1 200 Rx d 8 9e 8f 97 e1 01 48 00 00
23.830000 1 220 Rx d 6 ce 00 a6 00 00 00
23.840000 1 240 Rx d 4 8f ff 9f fd
23.850000 1 260 Rx d 8 20 ff 8f 00 4d ff f9 00
23.900000 1 100 Rx d 2 ef 03
23.910000 1 120 Rx d 8 f9 02 5a 0f 69 7f 00 00
23.920000 1 200 Rx d 8 9d b2 97 d4 01 48 00 00
23.930000 1 220 Rx d 6 a8 00 8b 00 00 00
23.940000 1 240 Rx d 4 87 ff ac fd
23.950000 1 260 Rx d 8 27 ff 8b 00 70 ff f8 00
24.000000 1 100 Rx d 2 f0 03
24.010000 1 120 Rx d 8 01 03 4a 0f 69 7e 00 00
24.020000 1 200 Rx d 8 9e a4 97 be 01 48 00 00
24.030000 1 220 Rx d 6 c1 00 9c 00 00 00
24.040000 1 240 Rx d 4 86 ff c4 fd
24.050000 1 260 Rx d 8 25 ff 9a 00 51 ff f9 00
24.100000 1 100 Rx d 2 f1 03
24.110000 1 120 Rx d 8 03 03 f7 0e 68 7f 00 00
24.120000 1 200 Rx d 8 9e 93 97 dc 01 48 00 00
24.130000 1 220 Rx d 6 7d 00 65 00 00 00
24.140000 1 240 Rx d 4 86 ff c7 fd
24.150000 1 260 Rx d 8 3b ff 93 00 6a ff f8 00
24.200000 1 100 Rx d 2 f2 03
24.210000 1 120 Rx d 8 02 03 02 0f 64 7f 00 00
24.220000 1 200 Rx d 8 9e a8 97 b0 01 48 00 00
24.230000 1 220 Rx d 6 55 00 45 00 00 00
24.240000 1 240 Rx d 4 83 ff fe fd
24.250000 1 260 Rx d 8 33 ff 9c 00 62 ff f8 00
24.300000 1 100 Rx d 2 f3 03
24.310000 1 120 Rx d 8 f8 02 d7 0e 6b 7f 00 00
24.320000 1 200 Rx d 8 9e 95 97 c5 01 48 00 00
24.330000 1 220 Rx d 6 31 00 27 00 00 00
24.340000 1 240 Rx d 4 88 ff fb fd
24.350000 1 260 Rx d 8 40 ff 9c 00 3f ff f8 00
24.400000 1 100 Rx d 2 f4 03
24.410000 1 120 Rx d 8 08 03 c0 0e 69 7f 00 00
24.420000 1 200 Rx d 8 9e 93 97 c2 01 48 00 00
24.430000 1 220 Rx d 6 00 00 00 00 00 00
24.440000 1 240 Rx d 4 85 ff 24 fe
24.450000 1 260 Rx d 8 3e ff 91 00 5f ff f9 00
24.500000 1 100 Rx d 2 f5 03
24.510000 1 120 Rx d 8 02 03 b4 0e 66 7e 00 00
24.520000 1 200 Rx d 8 9e 96 97 af 01 48 00 00
24.530000 1 220 Rx d 6 00 00 00 00 00 00
24.540000 1 240 Rx d 4 87 ff 35 fe
24.550000 1 260 Rx d 8 2b ff 9e 00 9f ff f8 00
24.600000 1 100 Rx d 2 f6 03
24.610000 1 120 Rx d 8 fd 02 84 0e 6b 7f 00 00
24.620000 1 200 Rx d 8 9e 8f 97 d8 01 48 00 00
24.630000 1 220 Rx d 6 00 00 00 00 00 00
24.640000 1 240 Rx d 4 87 ff 2b fe
24.650000 1 260 Rx d 8 35 ff b1 00 76 ff f8 00
24.700000 1 100 Rx d 2 f7 03
24.710000 1 120 Rx d 8 06 03 79 0e 67 7f 00 00
24.720000 1 200 Rx d 8 9e a0 97 bc 01 48 00 00
24.730000 1 220 Rx d 6 00 00 00 00 00 00
24.740000 1 240 Rx d 4 81 ff 60 fe
24.750000 1 260 Rx d 8 46 ff a6 00 4a ff f8 00
24.800000 1 100 Rx d 2 f8 03
24.810000 1 120 Rx d 8 fd 02 5d 0e 68 7e 00 00
24.820000 1 200 Rx d 8 9e 96 97 cb 01 48 00 00
24.830000 1 220 Rx d 6 00 00 00 00 00 00
24.840000 1 240 Rx d 4 85 ff a9 fe
24.850000 1 260 Rx d 8 2a ff 9c 00 67 ff f8 00
24.900000 1 100 Rx d 2 f9 03
24.910000 1 120 Rx d 8 fc 02 4c 0e 69 7f 00 00
24.920000 1 200 Rx d 8 9e 9f 97 cb 01 48 00 00
24.930000 1 220 Rx d 6 00 00 00 00 00 00
24.940000 1 240 Rx d 4 8c ff a2 fe
24.950000 1 260 Rx d 8 0e ff a4 00 88 ff f8 00
25.000000 1 100 Rx d 2 fa 03
25.010000 1 120 Rx d 8 fd 02 6a 0e 67 7e 00 00
25.020000 1 200 Rx d 8 9e 9d 97 ae 01 48 00 00
25.030000 1 220 Rx d 6 00 00 00 00 00 00
25.040000 1 240 Rx d 4 86 ff 9e fe
25.050000 1 260 Rx d 8 07 ff ad 00 64 ff f8 00
End TriggerBlock
